! Created Thu Feb 26 13:04:05 2026
# hz S ma R 100
! 2 Port Network Data from SP1.SP block
! freq  magS11  angS11  magS21  angS21  magS12  angS12  magS22  angS22  
!     
10000000       0.092275092         -2.5200008        0.907020341         -7.3664467        0.907020341         -7.3664467       0.0912955237        -8.11276792
20000000      0.0943517074        -5.67791397        0.905845398        -14.6860167        0.905845398        -14.6860167       0.0906877769        -16.7202647
30000000      0.0967540968        -9.21378008        0.904651841        -21.9861664        0.904651841        -21.9861664       0.0886693999        -25.5128065
40000000      0.0992521162        -13.1163248        0.903212856        -29.2676319        0.903212856        -29.2676319       0.0851839454        -34.5369467
50000000       0.101812178        -17.3906078        0.901665624        -36.5286914        0.901665624        -36.5286914       0.0805180439        -43.8400029
60000000       0.104300666        -21.9940413        0.900018402         -43.767915        0.900018402         -43.767915       0.0748334888        -53.4898226
70000000       0.106601301        -26.8632268        0.898258782        -50.9853049        0.898258782        -50.9853049       0.0682805411         -63.575653
80000000       0.108630424          -31.92301        0.896387286        -58.1820881        0.896387286        -58.1820881       0.0610043927        -74.2366083
90000000       0.110335816        -37.1013142        0.894408018        -65.3601021        0.894408018        -65.3601021       0.0531565228        -85.7056222
100000000       0.111688355        -42.3339177        0.892328455        -72.5213224        0.892328455        -72.5213224        0.044914352        -98.4093906
110000000       0.112669373        -47.5569938        0.890145215        -79.6678444        0.890145215        -79.6678444       0.0365362228        -113.171212
120000000       0.113276829         -52.731659         0.88788711         -86.800835         0.88788711         -86.800835        0.028444392        -131.732033
130000000       0.113516792        -57.8204197        0.885569165        -93.9216049        0.885569165        -93.9216049       0.0215664163        -157.617769
140000000       0.113401007        -62.7918979        0.883206837        -101.031303        0.883206837        -101.031303       0.0179168513         165.322923
150000000       0.112945987         -67.619688        0.880815957        -108.130942        0.880815957        -108.130942        0.019672733         124.961033
160000000       0.112172752        -72.2809651        0.878411809        -115.221477        0.878411809        -115.221477       0.0257903157         94.7905716
170000000       0.111096712          -76.75726        0.876019235        -122.303787        0.876019235        -122.303787       0.0339008489         73.8174271
180000000       0.109766577         -81.027096        0.873630409        -129.378918        0.873630409        -129.378918       0.0427145734         57.7953456
190000000       0.108207808        -85.0746062        0.871266941        -136.447649        0.871266941        -136.447649       0.0516582832         44.3490055
200000000       0.106447605        -88.8777574        0.868969194        -143.509342        0.868969194        -143.509342       0.0604367556         32.3693979
210000000        0.10453184         -92.420823        0.866753202        -150.564381        0.866753202        -150.564381       0.0688520132         21.2779538
220000000       0.102515486        -95.6933898        0.864620599        -157.613755        0.864620599        -157.613755       0.0767563704         10.7475673
230000000       0.100456689        -98.6884598        0.862569101        -164.658498        0.862569101        -164.658498       0.0840327276        0.583223611
240000000      0.0984187085         -101.40298        0.860590103        -171.699554        0.860590103        -171.699554       0.0905845585        -9.33686176
250000000      0.0964696512        -103.853443        0.858675959        -178.736192        0.858675959        -178.736192       0.0963561027         -19.092968
260000000      0.0946158602          -106.0459         0.85686281         174.229272         0.85686281         174.229272        0.101274176        -28.7761453
270000000      0.0929422228        -107.982106        0.855101913         167.195271        0.855101913         167.195271        0.105264786        -38.4129597
280000000      0.0914948884        -109.697535         0.85338755         160.162362         0.85338755         160.162362         0.10831076        -48.0437279
290000000      0.0903053974        -111.226683        0.851714165         153.130201        0.851714165         153.130201        0.110395382        -57.7073183
300000000      0.0893969331        -112.609251        0.850074057         146.098518        0.850074057         146.098518        0.111516572        -67.4398093
310000000      0.0887819173        -113.888347        0.848459193         139.067131        0.848459193         139.067131        0.111690296        -77.2767786
320000000      0.0884625205        -115.105752        0.846862594         132.035919        0.846862594         132.035919        0.110954019        -87.2516822
330000000      0.0884232542         -116.30801        0.845279347         125.004947        0.845279347         125.004947        0.109364136        -97.3749605
340000000       0.088656068        -117.664382        0.843692572          117.97487        0.843692572          117.97487        0.107019884        -107.764154
350000000      0.0888794866        -119.013338        0.842172285         110.948677        0.842172285         110.948677        0.103920448        -118.565209
360000000      0.0895160995        -120.358456        0.840591178         103.913817        0.840591178         103.913817        0.100077097        -129.726614
370000000      0.0901548896        -121.895891         0.83890734         96.8887513         0.83890734         96.8887513       0.0959035957         -141.30325
380000000       0.090875407        -123.573357        0.837263942         89.8631173        0.837263942         89.8631173       0.0915060403        -153.426762
390000000      0.0916223209        -125.394743        0.835612035         82.8387534        0.835612035         82.8387534       0.0870750847        -166.193175
400000000      0.0923585646         -127.36204        0.833928131         75.8159965        0.833928131         75.8159965       0.0828570682        -179.690252
410000000      0.0930996293        -129.477636        0.832121901         68.7975336        0.832121901         68.7975336       0.0791212799         166.016245
420000000      0.0939797644         -131.86822          0.8296662         61.8409961          0.8296662         61.8409961       0.0759649408         151.016494
430000000      0.0926400425        -134.677203        0.838091403         55.0327017        0.838091403         55.0327017       0.0807059216         136.261935
440000000      0.0933891696        -136.155347        0.825203699         47.5985222        0.825203699         47.5985222       0.0732896571         116.959944
450000000      0.0933151105        -139.182361        0.825434091          40.759976        0.825434091          40.759976       0.0741523279         103.798371
460000000      0.0928325659        -141.985347        0.823923498         33.7592858        0.823923498         33.7592858       0.0758607231         88.3150034
470000000      0.0920499924        -144.833598        0.822294312         26.7585964        0.822294312         26.7585964        0.078784793         73.3198367
480000000      0.0909394673        -147.760422        0.820656022         19.7608834        0.820656022         19.7608834       0.0826335724         59.1030879
490000000      0.0894901463        -150.763342        0.819020801         12.7662649        0.819020801         12.7662649       0.0871138448         45.7313589
500000000      0.0877132177        -153.843996        0.817378102         5.77572943        0.817378102         5.77572943       0.0919585599          33.190091
510000000      0.0855561717        -157.050498        0.815759067        -1.20781853        0.815759067        -1.20781853       0.0970029322         21.4052598
520000000       0.082930518        -160.330528        0.814259701        -8.18959781        0.814259701        -8.18959781        0.101992912         10.2221659
530000000      0.0799218934        -163.627569        0.812795841        -15.1727857        0.812795841        -15.1727857        0.106676998       -0.414781389
540000000      0.0765657447        -166.958909        0.811356085        -22.1546682        0.811356085        -22.1546682        0.110939351        -10.5712926
550000000      0.0728674585        -170.325422        0.809952969        -29.1346338        0.809952969        -29.1346338        0.114677354         -20.322618
560000000      0.0688401328        -173.721828        0.808499307         -36.108563        0.808499307         -36.108563        0.117776555        -29.7314969
570000000      0.0645021456        -177.134479        0.807255415        -43.0938656        0.807255415        -43.0938656        0.120255076        -38.8664188
580000000      0.0598827152         179.443926        0.805959883         -50.072003        0.805959883         -50.072003        0.121973748        -47.7571008
590000000       0.055014152         176.024744        0.804710064        -57.0505183        0.804710064        -57.0505183        0.122932331        -56.4507459
600000000      0.0499356342         172.617904        0.803503843        -64.0298394        0.803503843        -64.0298394        0.123120608        -64.9820719
610000000      0.0446910401         169.232183         0.80233618        -71.0103296         0.80233618        -71.0103296        0.122551939        -73.3846406
620000000      0.0393271182          165.87792        0.801202026        -77.9923799        0.801202026        -77.9923799        0.121239494        -81.6896242
630000000      0.0338926202         162.564439        0.800096386        -84.9763305        0.800096386        -84.9763305        0.119203802        -89.9263423
640000000      0.0284382298         159.296651        0.799014538        -91.9624358        0.799014538        -91.9624358        0.116480405        -98.1266653
650000000      0.0230156365         156.078159        0.797950697        -98.9509506        0.797950697        -98.9509506        0.113116966        -106.326858
660000000      0.0176757218         152.898049        0.796899448        -105.942039        0.796899448        -105.942039        0.109188416        -114.566044
670000000      0.0124701519         149.678433        0.795856127        -112.935849        0.795856127        -112.935849        0.104878475        -122.898235
680000000     0.00745250001         146.074786        0.794815049        -119.932433        0.794815049        -119.932433        0.100101017        -131.280218
690000000      0.0026742155         139.116929        0.793767193        -126.931872        0.793767193        -126.931872       0.0949656943        -139.842998
700000000      0.0019016083         -25.565356        0.792707901         -133.93416        0.792707901         -133.93416       0.0895831936        -148.685607
710000000     0.00611311986        -34.3192419        0.791629948        -140.939287        0.791629948        -140.939287        0.084062237         -157.89028
720000000      0.0100367193        -36.9080239        0.790524636        -147.947171        0.790524636        -147.947171       0.0785247735        -167.561898
730000000      0.0136606578        -38.3125711        0.789383207        -154.957319        0.789383207        -154.957319       0.0731094333        -177.822861
740000000      0.0170213215        -38.9379837        0.788191861        -161.968098        0.788191861        -161.968098       0.0679904413         171.204655
750000000      0.0202306774          -38.92958        0.786973722        -168.976001        0.786973722        -168.976001       0.0634207021         159.402007
760000000      0.0233846567        -38.6055466        0.785806958        -175.983556        0.785806958        -175.983556         0.05966775         146.604426
770000000      0.0264852337        -37.9869641        0.784646209         177.003488        0.784646209         177.003488       0.0569055305         132.783823
780000000      0.0296413887        -37.0032054        0.783434899         169.986972        0.783434899         169.986972       0.0553621203         118.164586
790000000      0.0330065365        -35.7613858        0.782169727         162.968984        0.782169727         162.968984       0.0552427395         103.138851
800000000      0.0367185524        -34.4305896        0.780856888          155.95033        0.780856888          155.95033       0.0566342924         88.2066546
810000000      0.0408930926        -33.1828389        0.779497851         148.931186        0.779497851         148.931186       0.0594872132         73.8414582
820000000      0.0456207076        -32.1721725        0.778084981         141.911667        0.778084981         141.911667       0.0636443373         60.3584859
830000000      0.0509599109        -31.5204483        0.776608416         134.891874        0.776608416         134.891874       0.0688929309         47.8786196
840000000      0.0569450298        -31.3124213        0.775035656         127.872077        0.775035656         127.872077       0.0750111408         36.3776862
850000000      0.0636207077        -31.6389974        0.773215631         120.857222        0.773215631         120.857222       0.0817954424         25.7817981
860000000      0.0711001688        -33.0407304        0.770795153         113.994643        0.770795153         113.994643        0.089152961         16.4327189
870000000      0.0780845034        -34.4353646        0.774660042         106.586077        0.774660042         106.586077       0.0994891723         5.58387807
880000000       0.084387417        -35.2305034        0.768611131         99.8595518        0.768611131         99.8595518        0.104112543        -4.23090142
890000000      0.0928438316        -36.9804539        0.767616405         92.9298967        0.767616405         92.9298967        0.111606246        -11.7793756
900000000       0.102159169        -38.2207966        0.765745516         85.8882879        0.765745516         85.8882879        0.119208156        -20.0969646
910000000       0.110675938        -40.4638122        0.763867028         78.8685004        0.763867028         78.8685004        0.126565284        -28.3586715
920000000       0.119249724        -42.9182068         0.76202989         71.8749452         0.76202989         71.8749452        0.133576943        -36.4898129
930000000       0.127744387        -45.5177664         0.76027056         64.8876867         0.76027056         64.8876867        0.140186745        -44.5573675
940000000       0.136050177        -48.2241243        0.758539937         57.9055965        0.758539937         57.9055965        0.146278922         -52.605776
950000000        0.14407479        -51.0038077        0.756835842         50.9283131        0.756835842         50.9283131        0.151755263         -60.672241
960000000       0.151737428        -53.8258122        0.755165435         43.9554384        0.755165435         43.9554384        0.156529191        -68.7902778
970000000       0.158966964        -56.6618243         0.75353815           36.98642         0.75353815           36.98642        0.160526626        -76.9920564
980000000       0.165704273        -59.4848946        0.751961544         30.0205153        0.751961544         30.0205153        0.163684079        -85.3091308
990000000       0.171905544        -62.2699293        0.750442201         23.0568093        0.750442201         23.0568093        0.165952132        -93.7728873
1e+09       0.177541486        -64.9928567        0.748984705         16.0942681        0.748984705         16.0942681        0.167293062        -102.414657
1.01e+09        0.18260166        -67.6300837        0.747590516         9.13169952        0.747590516         9.13169952        0.167685995        -111.267563
1.02e+09        0.18709544        -70.1617859        0.746258265         2.16798681        0.746258265         2.16798681        0.167142886        -120.372187
1.03e+09       0.191049716        -72.5680971        0.744983126        -4.79812666        0.744983126        -4.79812666        0.165699208        -129.775852
1.04e+09       0.194513853        -74.8316149        0.743755865        -11.7678207        0.743755865        -11.7678207         0.16342403        -139.531773
1.05e+09       0.197557534        -76.9374984        0.742564016        -18.7421227        0.742564016        -18.7421227        0.160423724        -149.697647
1.06e+09       0.200269958        -78.8751797        0.741393045        -25.7218293        0.741393045        -25.7218293        0.156853443        -160.335734
1.07e+09       0.202755031        -80.6384573        0.740226404        -32.7077044        0.740226404        -32.7077044        0.152919568        -171.511386
1.08e+09       0.205133801        -82.2267152         0.73904163        -39.7003125         0.73904163        -39.7003125        0.148877964         176.713068
1.09e+09       0.207537974         -83.646434        0.737814189         -46.699637        0.737814189         -46.699637        0.145040618         164.292454
1.1e+09       0.210101925        -84.9126667         0.73652079        -53.7052183         0.73652079        -53.7052183        0.141769548         151.211896
1.11e+09       0.212953533        -86.0482232        0.735139265        -60.7162418        0.735139265        -60.7162418        0.139452837         137.507219
1.12e+09       0.216207304        -87.0842509        0.733648261        -67.7314796        0.733648261        -67.7314796        0.138470664         123.280997
1.13e+09       0.219954558        -88.0572585        0.732030124        -74.7493252        0.732030124        -74.7493252        0.139141434         108.708925
1.14e+09       0.224256958        -89.0078042        0.730271191        -81.7678095        0.730271191        -81.7678095        0.141671693         94.0206516
1.15e+09       0.229140258        -89.9765705        0.728363402        -88.7846933        0.728363402        -88.7846933         0.14611702         79.4616135
1.16e+09       0.234592825        -91.0019398        0.726304848        -95.7975362        0.726304848        -95.7975362         0.15237779         65.2461579
1.17e+09       0.240566165        -92.1170597        0.724099259        -102.803824        0.724099259        -102.803824        0.160223564          51.524996
1.18e+09       0.246979154        -93.3479038        0.721757048        -109.801049        0.721757048        -109.801049         0.16933632         38.3757749
1.19e+09       0.253724495        -94.7117567        0.719294703        -116.786844        0.719294703        -116.786844        0.179352702         25.8137758
1.2e+09       0.260677062         -96.218019         0.71673298        -123.759023         0.71673298        -123.759023        0.189901141         13.8104459
1.21e+09       0.267702564        -97.8684451        0.714095621        -130.715488        0.714095621        -130.715488        0.200620044         2.31385625
1.22e+09       0.274662998        -99.6610363         0.71140923        -137.653544         0.71140923        -137.653544        0.211177036        -8.73521388
1.23e+09       0.281399866        -101.591152        0.708732309        -144.569422        0.708732309        -144.569422        0.221309751        -19.3898361
