! Created Thu Apr  9 20:51:18 2026
# hz S ma R 50
! Port[1] TermG1
! Port[2] TermG2
! Port[3] TermG3
! Port[4] TermG4
! 4 Port Network Data from SP1.SP block
! freq  magS11  angS11  magS12  angS12  magS13  angS13  magS14  angS14  
!       magS21  angS21  magS22  angS22  magS23  angS23  magS24  angS24  
!       magS31  angS31  magS32  angS32  magS33  angS33  magS34  angS34  
!       magS41  angS41  magS42  angS42  magS43  angS43  magS44  angS44  
!     
10000000      0.0948403336        0.159261949      0.00502506357         58.4459805        0.904830945        -7.36535921      0.00216822577         171.008723
                    0.00502506357         58.4459805       0.0947911836        0.112567662      0.00216934516         171.005285        0.904873918        -7.35973796
                      0.904830945        -7.36535921      0.00216934516         171.005285       0.0938039084         -5.3609652      0.00505988097         53.8902742
                    0.00216822577         171.008723        0.904873918        -7.35973796      0.00505988097         53.8902742       0.0937505928        -5.40314677

20000000      0.0975895693       -0.581565407      0.00905289197         66.1328958        0.903591549        -14.6708776      0.00225138465         157.266753
                    0.00905289197         66.1328958       0.0975254111       -0.658932667      0.00225538462         157.266188        0.903636966        -14.6611504
                      0.903591549        -14.6708776      0.00225538462         157.266188       0.0936546972        -11.3468792      0.00906964777         57.1048762
                    0.00225138465         157.266753        0.903636966        -14.6611504      0.00906964777         57.1048762       0.0935861738        -11.4164061

30000000       0.101021006        -1.96219517        0.013107373         65.6090123        0.902379185        -21.9564897      0.00232093125         143.561388
                      0.013107373         65.6090123        0.100941452        -2.07239503      0.00232961856         143.592524        0.902421161        -21.9422265
                      0.902379185        -21.9564897      0.00232961856         143.592524       0.0924324735        -17.4959831        0.013111087         52.0270414
                    0.00232093125         143.561388        0.902421161        -21.9422265        0.013111087         52.0270414        0.092346719        -17.5996622

40000000        0.10467282        -3.96570829       0.0170009258         63.0655475        0.900959591        -29.2229697       0.0023841413         129.812095
                     0.0170009258         63.0655475        0.104574059        -4.10931619        0.002398927         129.913383        0.900997639         -29.203936
                      0.900959591        -29.2229697        0.002398927         129.913383       0.0899235232        -23.7643525       0.0169756477         44.8688421
                     0.0023841413         129.812095        0.900997639         -29.203936       0.0169756477         44.8688421        0.089811973         -23.908544

50000000       0.108358252        -6.58302191       0.0206601462         59.7568799        0.899465087        -36.4689592      0.00244607901         116.095837
                     0.0206601462         59.7568799        0.108237128        -6.76031658      0.00246789312         116.312359        0.899499599        -36.4450202
                      0.899465087        -36.4689592      0.00246789312         116.312359       0.0863438163        -30.1277192       0.0205805997         36.8575467
                    0.00244607901         116.095837        0.899499599        -36.4450202       0.0205805997         36.8575467       0.0861957054        -30.3192537

60000000       0.111833409        -9.74306195        0.024030406         56.0980292        0.897915199        -43.6936863      0.00249422178          102.39539
                      0.024030406         56.0980292        0.111688187        -9.95480339      0.00252338747         102.777876        0.897946612        -43.6647577
                      0.897915199        -43.6936863      0.00252338747         102.777876        0.081800992        -36.5557476       0.0238694977         28.3752351
                    0.00249422178          102.39539        0.897946612        -43.6647577       0.0238694977         28.3752351       0.0816047997        -36.8028109

70000000       0.114900305        -13.3523915       0.0270666166         52.2886562        0.896301867        -50.8979287      0.00252067476         88.6877418
                     0.0270666166         52.2886562        0.114730634         -13.600199      0.00255682607         89.2920679        0.896330354        -50.8639501
                      0.896301867        -50.8979287      0.00255682607         89.2920679        0.076389164        -43.0024098       0.0267940718          19.588038
                    0.00252067476         88.6877418        0.896330354        -50.8639501       0.0267940718          19.588038       0.0761329595        -43.3155249

80000000       0.117424148        -17.3123241       0.0297314715         48.4424106        0.894625643        -58.0837298      0.00251954221         74.9334471
                     0.0297314715         48.4424106        0.117230665        -17.5987789       0.0025615529         75.8218229        0.894651054        -58.0446493
                      0.894625643        -58.0837298       0.0025615529         75.8218229       0.0701976984         -49.403963       0.0293143137           10.57025
                    0.00251954221         74.9334471        0.894651054        -58.0446493       0.0293143137           10.57025       0.0698688418        -49.7971534

90000000       0.119324612         -21.534901        0.031995321         44.6352831        0.892887418        -65.2537162       0.0024863323         61.0642974
                      0.031995321         44.6352831         0.11910858        -21.8635431      0.00253224464         62.3078096        0.892909271        -65.2094802
                      0.892887418        -65.2537162      0.00253224464         62.3078096       0.0633184168        -55.6679118       0.0313983544         1.35098263
                     0.0024863323         61.0642974        0.892909271        -65.2094802       0.0313983544         1.35098263       0.0629029415        -56.1601317

100000000       0.120560837         -25.946077       0.0338368029         40.9270903        0.891088644        -72.4105773      0.00241813491           46.97677
                     0.0338368029         40.9270903        0.120323852        -26.3213785      0.00246506694         48.6591894        0.891106135         -72.361123
                      0.891088644        -72.4105773      0.00246506694         48.6591894       0.0558479328        -61.6571822        0.033022954        -8.06572265
                    0.00241813491           46.97677        0.891106135         -72.361123        0.033022954        -8.06572265       0.0553296553        -62.2741755

110000000       0.121118201         -30.476642       0.0352429764         37.3730991        0.889216447        -79.5570457      0.00231378796         32.5505014
                     0.0352429764         37.3730991        0.120861272        -30.9039077      0.00235787963         34.7705682        0.889228495        -79.5022898
                      0.889216447        -79.5570457      0.00235787963         34.7705682       0.0479058625        -67.1508338       0.0341745398        -17.6901127
                    0.00231378796         32.5505014        0.889228495        -79.5022898       0.0341745398        -17.6901127       0.0472649378        -67.9265678

120000000       0.120996721        -35.0825107       0.0362129855          34.029166        0.887291097         -86.694714      0.00217418254         17.5198176
                     0.0362129855          34.029166        0.120721421        -35.5679818      0.00221018869         20.4017365        0.887296379        -86.6345571
                      0.887291097         -86.694714      0.00221018869         20.4017365       0.0396104014        -71.7526268       0.0348495814        -27.5481603
                    0.00217418254         17.5198176        0.887296379        -86.6345571       0.0348495814        -27.5481603        0.038821488        -72.7295244

130000000       0.120212915        -39.7227512       0.0367570673         30.9540751        0.885316962        -93.8252216      0.00200327494         1.52364576
                     0.0367570673         30.9540751        0.119920674        -40.2736886      0.00202422994         5.21460162        0.885313962        -93.7595402
                      0.885316962        -93.8252216      0.00202422994         5.21460162       0.0311365969        -74.6562077       0.0350552437        -37.6796239
                    0.00200327494         1.52364576        0.885313962        -93.7595402       0.0350552437        -37.6796239       0.0301650658        -75.8680739

140000000       0.118791816        -44.3622844       0.0368981486         28.2135523        0.883298684        -100.949896      0.00180971607        -16.0108788
                     0.0368981486         28.2135523        0.118483786        -44.9870768      0.00180627408         -11.363959        0.883285751         -100.87854
                      0.883298684        -100.949896      0.00180627408         -11.363959       0.0227861421        -73.9294624       0.0348100042        -48.1391591
                    0.00180971607        -16.0108788        0.883285751         -100.87854       0.0348100042        -48.1391591       0.0215842062         -75.276032

150000000       0.116764857        -48.9699207       0.0366733017         25.8823366        0.881241662        -108.069789      0.00161025023        -35.9642167
                     0.0366733017         25.8823366        0.116441757        -49.6782359      0.00156995814        -30.3258102        0.881217071        -107.992579
                      0.881241662        -108.069789      0.00156995814        -30.3258102       0.0153105765        -64.1767579       0.0341447224        -58.9993631
                    0.00161025023        -35.9642167        0.881217071        -107.992579       0.0341447224        -58.9993631        0.013853073        -64.5355201

160000000       0.114169159          -53.51638       0.0361352831         24.0449278        0.879151624        -115.185761      0.00143568627        -59.4851536
                     0.0361352831         24.0449278        0.113831079        -54.3193575      0.00134371116        -53.3020848        0.879113635        -115.102488
                      0.879151624        -115.185761      0.00134371116        -53.3020848       0.0111540102        -34.0091333       0.0331041516        -70.3550886
                    0.00143568627        -59.4851536        0.879113635        -115.102488       0.0331041516        -70.3550886      0.00989811229        -28.4407578

170000000       0.111036407        -57.9724937       0.0353544587         22.7946518        0.877045363        -122.298519      0.00133671327        -87.2637827
                     0.0353544587         22.7946518        0.110682337        -58.8830935      0.00118367459        -82.1871856        0.876992498        -122.208941
                      0.877045363        -122.298519      0.00118367459        -82.1871856       0.0138415724        0.889293446       0.0317496079        -82.3278702
                    0.00133671327        -87.2637827        0.876992498        -122.208941       0.0317496079        -82.3278702       0.0136755899         8.29055386

180000000       0.107434518         -62.308641       0.0344191438         22.2258174        0.874907732        -129.408767      0.00137308935        -117.539321
                     0.0344191438         22.2258174        0.107062629        -63.3416251      0.00117415049        -115.993715        0.874838242        -129.312615
                      0.874907732        -129.408767      0.00117415049        -115.993715       0.0207441675         14.3021029       0.0301602394        -95.0727847
                    0.00137308935        -117.539321        0.874838242        -129.312615       0.0301602394        -95.0727847       0.0213045196         19.4108206

190000000       0.103407699        -66.4914529       0.0334379692         22.4236129        0.872755612        -136.516953      0.00157427172        -146.132185
                     0.0334379692         22.4236129        0.103014315         -67.663987      0.00136836029        -148.316479        0.872668093        -136.413927
                      0.872755612        -136.516953      0.00136836029        -148.316479       0.0287843845          16.413673       0.0284400108          -108.7745
                    0.00157427172        -146.132185        0.872668093        -136.413927       0.0284400108          -108.7745       0.0297789754         20.1089705

200000000      0.0990089477        -70.4756312         0.03253692         23.4374827        0.870625314        -143.622108      0.00192070225        -170.324486
                       0.03253692         23.4374827       0.0985877285        -71.8076375      0.00173788724        -174.372523         0.87051865        -143.511881
                      0.870625314        -143.622108      0.00173788724        -174.372523       0.0369788951         14.1110049       0.0267232914        -123.632919
                    0.00192070225        -170.324486         0.87051865        -143.511881       0.0267232914        -123.632919       0.0383029339         17.0066864

210000000      0.0943068631        -74.2178129       0.0318525174         25.2518206        0.868531432         -150.72421      0.00237616015          169.77568
                     0.0318525174         25.2518206       0.0938483688        -75.7322329      0.00222831446         165.288909        0.868404815        -150.606428
                      0.868531432         -150.72421      0.00222831446         165.288909       0.0449748904         9.79703509       0.0251732628        -139.819789
                    0.00237616015          169.77568        0.868404815        -150.606428       0.0251732628        -139.819789       0.0465886461         12.1960945

220000000      0.0893787628        -77.6730656       0.0315194875         27.7518335        0.866476642         -157.82384      0.00291219015         153.057268
                     0.0315194875         27.7518335       0.0888698092        -79.3961092      0.00280249051         148.747637        0.866329596        -157.698134
                      0.866476642         -157.82384      0.00280249051         148.747637       0.0525891757         4.41537038       0.0239772795         -157.38579
                    0.00291219015         153.057268        0.866329596        -157.698134       0.0239772795         -157.38579       0.0544771285         6.47767862

230000000      0.0843075462         -80.790682       0.0316522545         30.7080356        0.864462155         -164.92166      0.00351109851          138.54081
                     0.0316522545         30.7080356       0.0837302985         -82.751931      0.00344022952         134.615668        0.864294563        -164.787642
                      0.864462155         -164.92166      0.00344022952         134.615668       0.0596984549        -1.59997246       0.0233261973        -176.131827
                    0.00351109851          138.54081        0.864294563        -164.787642       0.0233261973        -176.131827       0.0618553485        0.216887151

240000000      0.0791817766        -83.5133506       0.0323246687         33.8019602        0.862488525        -172.018365      0.00416278404         125.563368
                     0.0323246687         33.8019602       0.0785126997        -85.7454839      0.00413102391         122.071971        0.862300635        -171.875639
                      0.862488525        -172.018365      0.00413102391         122.071971        0.066208187        -8.02476095       0.0233718404         164.467935
                    0.00416278404         125.563368        0.862300635        -171.875639       0.0233718404         164.467935       0.0686333651        -6.39810861

250000000      0.0740961034        -85.7776725       0.0335567285         36.6944994        0.860555739        -179.114679      0.00486209423         113.700307
                     0.0335567285         36.6944994       0.0733048445        -88.3154767      0.00486984738         110.637158         0.86034815         -178.96284
                      0.860555739        -179.114679      0.00486984738         110.637158       0.0720418404        -14.7330333       0.0241793498         145.160957
                    0.00486209423         113.700307         0.86034815         -178.96284       0.0241793498         145.160957       0.0747366052         -13.262067

260000000      0.0691511391        -87.5159287       0.0353150128         39.1051573        0.858662707         173.788618      0.00560742476         102.676814
                     0.0353150128         39.1051573       0.0681994441        -90.3940759      0.00565531685         100.020664        0.858436344         173.949977
                      0.858662707         173.788618      0.00565531685         100.020664       0.0771370159        -21.6495114       0.0257081393         126.639361
                    0.00560742476         102.676814        0.858436344         173.949977       0.0257081393         126.639361       0.0801032746         -20.312629

270000000      0.0644531071        -88.6610091       0.0375260697         40.8610654        0.856807518         166.690695      0.00640015157         92.3083598
                     0.0375260697         40.8610654       0.0632940457        -91.9099085      0.00648903682         90.0366431         0.85656358          166.86198
                      0.856807518         166.690695      0.00648903682         90.0366431       0.0814438575        -28.7273068       0.0278370009         109.308229
                    0.00640015157         92.3083598         0.85656358          166.86198       0.0278370009         109.308229       0.0846833973        -27.5116209

280000000      0.0601120826        -89.1551281       0.0400953223         41.9000902        0.854987301         159.590653      0.00724453566         82.4645264
                     0.0400953223         41.9000902        0.058689964        -92.7941465      0.00737551866         80.5586063         0.85472718         159.772268
                      0.854987301         159.590653      0.00737551866         80.5586063       0.0849247052        -35.9363794       0.0304107447           93.25762
                    0.00724453566         82.4645264         0.85472718         159.772268       0.0304107447           93.25762       0.0884388291        -34.8353875

290000000      0.0562382061        -88.9634376       0.0429240491         42.2431065        0.853198109         152.487494      0.00814793079         73.0471746
                     0.0429240491         42.2431065       0.0544896762        -92.9912841      0.00832243996         71.4941832        0.852923279         152.679846
                      0.853198109         152.487494      0.00832243996         71.4941832       0.0875543816         -43.257125       0.0332778788         78.3735809
                    0.00814793079         73.0471746        0.852923279         152.679846       0.0332778788         78.3735809       0.0913437754        -42.2694397

300000000      0.0529354082        -88.0917133       0.0459211084         41.9587639        0.851435058           145.3801      0.00912124012          63.976942
