! Generated by SPUtility circuit solver
# GHZ S RI R 50
0.01 0.0921858570269 -0.00405716565626 0.899534172547 -0.116293462549 0.899534172547 -0.116293462549 0.0903818603834 -0.0128837955831
0.02 0.0938888014611 -0.00933480184762 0.876251112618 -0.229651614434 0.876251112618 -0.229651614434 0.0868535727956 -0.0260908133734
0.03 0.0955057640337 -0.0154921392837 0.838860370424 -0.338686007202 0.838860370424 -0.338686007202 0.080023166182 -0.0381910604673
0.04 0.0966627796832 -0.0225231802297 0.787913747757 -0.441571456803 0.787913747757 -0.441571456803 0.0701711994569 -0.0482940000561
0.05 0.0971583028304 -0.0304300954132 0.724541416614 -0.53669411261 0.724541416614 -0.53669411261 0.0580758026742 -0.0557706132575
0.06 0.0967099943086 -0.0390617038282 0.649946207183 -0.622577673823 0.649946207183 -0.622577673823 0.0445233453395 -0.0601475629454
0.07 0.0950977625692 -0.048169172662 0.565471574942 -0.697933094262 0.565471574942 -0.697933094262 0.0303858943799 -0.0611468566495
0.08 0.0922011547969 -0.0574416163615 0.472594615318 -0.761685181413 0.472594615318 -0.761685181413 0.01657272774 -0.058710226155
0.09 0.0880006167871 -0.0665576137421 0.372891102581 -0.812968441897 0.372891102581 -0.812968441897 0.00398030366132 -0.053007401393
0.1 0.0825637403064 -0.075216758706 0.268011682177 -0.851128368179 0.268011682177 -0.851128368179 -0.00656867638386 -0.0444315682302
0.11 0.0760357213521 -0.0831445377998 0.159651560522 -0.875710847386 0.159651560522 -0.875710847386 -0.0143765270928 -0.0335890593219
0.12 0.0685946867685 -0.0901470129904 0.0495505002919 -0.886503115453 0.0495505002919 -0.886503115453 -0.0189342926278 -0.0212271321484
0.13 0.0604561667433 -0.0960791890845 -0.0605650399094 -0.883495337691 -0.0605650399094 -0.883495337691 -0.0199421432428 -0.00821208630023
0.14 0.0518495508937 -0.100854030185 -0.168996924166 -0.866887312868 -0.168996924166 -0.866887312868 -0.0173327558026 0.00453981529344
0.15 0.0430042883397 -0.104439369627 -0.274100126722 -0.837081220766 -0.274100126722 -0.837081220766 -0.0112734678552 0.0161230591049
0.16 0.034139345333 -0.106852351202 -0.374306450939 -0.794670317068 -0.374306450939 -0.794670317068 -0.00215447721873 0.0257009527826
0.17 0.0254490530679 -0.108143723026 -0.468150550619 -0.74043466577 -0.468150550619 -0.74043466577 0.00944758593587 0.0325587700353
0.18 0.0171189447428 -0.108424804837 -0.554269734402 -0.675287852406 -0.554269734402 -0.675287852406 0.022764206367 0.0361445345495
0.19 0.00928890461607 -0.107810047735 -0.631444322011 -0.600318654638 -0.631444322011 -0.600318654638 0.0369407488099 0.0361127047175
0.2 0.00208228266343 -0.106429285031 -0.698608534595 -0.516770528761 -0.698608534595 -0.516770528761 0.0510467472736 0.0323591322513
0.21 -0.00441925479945 -0.104440859266 -0.754859751021 -0.42596495306 -0.754859751021 -0.42596495306 0.0641609301343 0.0249891804527
0.22 -0.0101763393593 -0.102011989094 -0.799457660187 -0.329295029193 -0.799457660187 -0.329295029193 0.0754150025879 0.0143171236689
0.23 -0.0151856947907 -0.0993046860693 -0.831830843173 -0.228221426065 -0.831830843173 -0.228221426065 0.0840381007917 0.00085725865366
0.24 -0.0194757181076 -0.0964685987666 -0.851582486893 -0.124255242658 -0.851582486893 -0.124255242658 0.0894011952979 -0.0147039399496
0.25 -0.0231017185518 -0.0936358423221 -0.858494750934 -0.018939503963 -0.858494750934 -0.018939503963 0.0910537708563 -0.0315461802984
0.26 -0.0261400553341 -0.0909167857073 -0.852531195499 0.0861705895093 -0.852531195499 0.0861705895093 0.0887507401608 -0.0487610264887
0.27 -0.0286825725537 -0.0883977648277 -0.833838175265 0.189527289116 -0.833838175265 0.189527289116 0.0824676413323 -0.0654027523338
0.28 -0.0308306861985 -0.0861398766437 -0.802744019397 0.289610898798 -0.802744019397 0.289610898798 0.0724037089318 -0.0805412305373
0.29 -0.0326896902316 -0.084179100959 -0.7597559943 0.384950859081 -0.7597559943 0.384950859081 0.0589725659369 -0.093314178862
0.3 -0.0343635956908 -0.0825279712697 -0.705555125399 0.474146920971 -0.705555125399 0.474146920971 0.0427811557836 -0.102975950087
0.31 -0.0359496310859 -0.0811783741483 -0.64098715358 0.555890666931 -0.64098715358 0.555890666931 0.0245989439289 -0.108940818843
0.32 -0.03753204601 -0.0801071265285 -0.567051345701 0.628986264907 -0.567051345701 0.628986264907 0.00532266808058 -0.110820215041
0.33 -0.0391885037027 -0.0792666108073 -0.484888032186 0.692368662159 -0.484888032186 0.692368662159 -0.014033548135 -0.108454891098
0.34 -0.0411633851781 -0.078522672925 -0.395760031463 0.745106580373 -0.395760031463 0.745106580373 -0.0326456284444 -0.101914897412
0.35 -0.0431103427043 -0.0777263196871 -0.301101700404 0.786500525867 -0.301101700404 0.786500525867 -0.0496826750463 -0.0912707433616
0.36 -0.0452461866423 -0.0772409295666 -0.202131132703 0.81592048498 -0.202131132703 0.81592048498 -0.0639532372893 -0.076973234416
0.37 -0.0476412473633 -0.0765394974834 -0.100624174284 0.832843751514 -0.100624174284 0.832843751514 -0.0748414312549 -0.0599667132631
0.38 -0.050261165747 -0.0757092721924 0.00199179253352 0.837253863495 0.00199179253352 0.837253863495 -0.0818334587544 -0.0409476928054
0.39 -0.0530754460699 -0.0746772296322 0.104154174536 0.829087116878 0.104154174536 0.829087116878 -0.0845571350311 -0.0208006566172
0.4 -0.056052738811 -0.0733871337689 0.204317385809 0.808503321105 0.204317385809 0.808503321105 -0.0828633088563 -0.00047875047094
0.41 -0.0591802470247 -0.0718226798278 0.300904849137 0.775813310928 0.300904849137 0.775813310928 -0.0768127368491 0.019070124062
0.42 -0.0626220541403 -0.0699674837457 0.391516516496 0.731602450252 0.391516516496 0.731602450252 -0.0666368322579 0.0367902191296
0.43 -0.0651927969758 -0.065872303692 0.480346067351 0.686697653737 0.480346067351 0.686697653737 -0.0581698773364 0.0559071113322
0.44 -0.0673510315822 -0.0646958581872 0.55643891036 0.609355204268 0.55643891036 0.609355204268 -0.0331923274553 0.0653230875227
0.45 -0.0706274769276 -0.061004100013 0.625218184402 0.538923942785 0.625218184402 0.538923942785 -0.0176721287422 0.0720172480058
0.46 -0.0731543627731 -0.0571742752363 0.684984516669 0.457869922652 0.684984516669 0.457869922652 0.00223957720298 0.0758394725563
0.47 -0.0752722603603 -0.0530078457165 0.734227414222 0.37024500318 0.734227414222 0.37024500318 0.0226243431758 0.0754890682184
0.48 -0.0769467336524 -0.0484863030442 0.772325720898 0.277496875551 0.772325720898 0.277496875551 0.0424533737985 0.0709358343859
0.49 -0.0781139781189 -0.0436517029021 0.798791180963 0.181040408876 0.798791180963 0.181040408876 0.0608560123216 0.0624133882843
0.5 -0.0787141260242 -0.038567233209 0.813302614028 0.0823211899092 0.813302614028 0.0823211899092 0.0770529010517 0.0503431000686
0.51 -0.0786793038685 -0.0332896331889 0.815702294628 -0.0172097045897 0.815702294628 -0.0172097045897 0.0903965106204 0.0353114250698
0.52 -0.0779844438605 -0.027924636339 0.806027222707 -0.116070972736 0.806027222707 -0.116070972736 0.100372012011 0.0179930040867
0.53 -0.0766080363071 -0.0225699705169 0.784484116029 -0.212815260046 0.784484116029 -0.212815260046 0.106631072672 -0.000845497984723
0.54 -0.0745429295233 -0.0173258327423 0.751447991535 -0.306038096867 0.751447991535 -0.306038096867 0.109000445654 -0.0203957239355
0.55 -0.0717996486342 -0.0122946636891 0.707456027904 -0.394392645369 0.707456027904 -0.394392645369 0.107480631276 -0.0398477912192
0.56 -0.0684067416105 -0.0075769442228 0.653157869492 -0.47650688632 0.653157869492 -0.47650688632 0.102217318331 -0.058409714235
0.57 -0.0644111808023 -0.00326971283308 0.589451165259 -0.551546161088 0.589451165259 -0.551546161088 0.0935825428578 -0.0754475642768
0.58 -0.0598771440741 0.000539388313569 0.517246250059 -0.618073806642 0.517246250059 -0.618073806642 0.0819585647882 -0.0902725564228
0.59 -0.0548851557044 0.00377584399308 0.437641698442 -0.675284940667 0.437641698442 -0.675284940667 0.0679074012353 -0.102419549484
0.6 -0.0495301154305 0.00638212135566 0.351817922771 -0.72237049531 0.351817922771 -0.72237049531 0.0520473859353 -0.111529192023
0.61 -0.0439165559121 0.00832031640565 0.261042065698 -0.758664789929 0.261042065698 -0.758664789929 0.035034501021 -0.117392026918
0.62 -0.0381540594027 0.00957114298639 0.166651480799 -0.783657800267 0.166651480799 -0.783657800267 0.0175269816478 -0.119923390708
0.63 -0.032352893846 0.0101365909128 0.0700361255275 -0.797002383083 0.0700361255275 -0.797002383083 0.000168794902095 -0.119163601902
0.64 -0.0266200688484 0.0100408162808 -0.0273804204743 -0.798520285821 -0.0273804204743 -0.798520285821 -0.0164393593999 -0.115276717231
0.65 -0.0210562781274 0.00932573273527 -0.124162364828 -0.7882044856 -0.124162364828 -0.7882044856 -0.0317635821778 -0.108530582515
0.66 -0.0157503883949 0.00805188277477 -0.21888092471 -0.766221448439 -0.21888092471 -0.766221448439 -0.0453528975614 -0.0992917628048
0.67 -0.0107757296089 0.00630081165888 -0.310135352942 -0.732909817688 -0.310135352942 -0.732909817688 -0.0569197596433 -0.0880614593138
0.68 -0.00618890039346 0.00416990933079 -0.396575040495 -0.688775854383 -0.396575040495 -0.688775854383 -0.0659964665308 -0.0752424598417
0.69 -0.0020177444382 0.00176501553143 -0.476916447405 -0.634485017484 -0.476916447405 -0.634485017484 -0.0725419050335 -0.0612760640911
0.7 0.00173211260566 -0.000804261450559 -0.549966894669 -0.570859966064 -0.549966894669 -0.570859966064 -0.0765082132488 -0.0466104563107
0.71 0.00508235878676 -0.00343324201544 -0.614641093317 -0.498862817332 -0.614641093317 -0.498862817332 -0.0778782332051 -0.0317048206638
0.72 0.00808005010507 -0.00602632032644 -0.669979059498 -0.419583797592 -0.669979059498 -0.419583797592 -0.0767147823062 -0.01698464272
0.73 0.0107951045312 -0.00849898298999 -0.715164654983 -0.334228180178 -0.715164654983 -0.334228180178 -0.0731398077097 -0.00283340207169
0.74 0.013316045966 -0.0107890454915 -0.749535974133 -0.244091046837 -0.749535974133 -0.244091046837 -0.0673212480901 0.0104060707683
0.75 0.0157450924041 -0.0128616465745 -0.772594076857 -0.150537890894 -0.772594076857 -0.150537890894 -0.0594634031545 0.0224327161563
0.76 0.0181921678336 -0.0147095079919 -0.784013083021 -0.0549863016354 -0.784013083021 -0.0549863016354 -0.049795843244 0.0329881112646
0.77 0.0207683582902 -0.0163544334716 -0.783645252994 0.0411163211589 -0.783645252994 0.0411163211589 -0.0385645729613 0.0418526189908
0.78 0.023577138223 -0.0178492037331 -0.771522324987 0.13631579803 -0.771522324987 0.13631579803 -0.0260300831416 0.0488383004043
0.79 0.0267081851301 -0.0192743737369 -0.747857307916 0.229172595863 -0.747857307916 0.229172595863 -0.0124637474792 0.0537878147198
0.8 0.0302295388246 -0.0207335911089 -0.713042485278 0.318286754152 -0.713042485278 0.318286754152 0.00185162395009 0.056570895171
0.81 0.0341850123233 -0.0223483856731 -0.667636656261 0.402320726628 -0.667636656261 0.402320726628 0.0166194258966 0.0570831693925
0.82 0.0385911992693 -0.0242577740568 -0.612354230574 0.480011252993 -0.612354230574 0.480011252993 0.0315279368125 0.0552466776614
0.83 0.0434290020179 -0.0266122381714 -0.548062262751 0.550190760977 -0.548062262751 0.550190760977 0.0462469120055 0.0510138349846
0.84 0.0486453562537 -0.0295732482086 -0.475759400223 0.611786797173 -0.475759400223 0.611786797173 0.060422738387 0.0443748809943
0.85 0.0541454171849 -0.033355331883 -0.39659276032 0.663719408482 -0.39659276032 0.663719408482 0.0736540253804 0.0353882273219
0.86 0.0596142030993 -0.0385857215608 -0.313667679373 0.704296171214 -0.313667679373 0.704296171214 0.0851674538196 0.0249126185755
0.87 0.0645059996315 -0.0443861263148 -0.220866579102 0.742528258561 -0.220866579102 0.742528258561 0.0988896455303 0.00992650119991
0.88 0.0687946895334 -0.0487843897251 -0.131484206797 0.75718517634 -0.131484206797 0.75718517634 0.103816233346 -0.0075932607393
0.89 0.0741010614684 -0.0558586343568 -0.0391841195781 0.766567711571 -0.0391841195781 0.766567711571 0.109245670145 -0.0227343431708
0.9 0.0801997823061 -0.0631834500829 0.0549405722653 0.763728265414 0.0549405722653 0.763728265414 0.111935238014 -0.0409217261773
0.91 0.0841615713393 -0.0717932897815 0.147497644371 0.749452445221 0.147497644371 0.749452445221 0.11136540934 -0.060078209203
0.92 0.0873001933159 -0.0811679404264 0.23707765699 0.724175736192 0.23707765699 0.724175736192 0.107384504037 -0.0793965412235
0.93 0.0894893765583 -0.0911049130482 0.322663592215 0.688367051419 0.322663592215 0.688367051419 0.0998888260536 -0.0983190587929
0.94 0.0906275300247 -0.101424084535 0.403027177557 0.642575465582 0.403027177557 0.642575465582 0.0888397301015 -0.116176235614
0.95 0.0906567839021 -0.111938018968 0.477024580218 0.58753739476 0.477024580218 0.58753739476 0.0743422152843 -0.132267600997
0.96 0.0895625984743 -0.122452785135 0.543619423067 0.524123287487 0.543619423067 0.524123287487 0.0566479516477 -0.145891282748
0.97 0.0873710679495 -0.132775651924 0.601895369869 0.453314500172 0.601895369869 0.453314500172 0.0361570757715 -0.156376086465
0.98 0.0841502985832 -0.142723694354 0.651063479858 0.376183701348 0.651063479858 0.376183701348 0.0134165073207 -0.163109399865
0.99 0.0800056373188 -0.152135530912 0.690469872883 0.293879621391 0.690469872883 0.293879621391 -0.0108842706474 -0.16557197315
1 0.0750738367252 -0.160876339887 0.719600182418 0.207611383115 0.719600182418 0.207611383115 -0.035925532617 -0.163367941928
1.01 0.0695195192883 -0.168844281176 0.738082683025 0.118631172793 0.738082683025 0.118631172793 -0.0607807234654 -0.156260982451
1.02 0.0635191774664 -0.175981476935 0.74568899917 0.0282227189927 0.74568899917 0.0282227189927 -0.0844657636858 -0.14420810398
1.03 0.0572594499083 -0.182269666686 0.742336415136 -0.0623150924965 0.742336415136 -0.0623150924965 -0.105968468543 -0.127362134366
1.04 0.0509224951214 -0.187736210646 0.728087960839 -0.151679841822 0.728087960839 -0.151679841822 -0.124286452064 -0.106089369525
1.05 0.0446772408279 -0.192449532566 0.70315476722 -0.238579133208 0.70315476722 -0.238579133208 -0.138469196201 -0.0809758607694
1.06 0.038667276213 -0.196515909596 0.667898017785 -0.321745490511 0.667898017785 -0.321745490511 -0.147675424097 -0.0528231122309
1.07 0.0330049308392 -0.200069361027 0.622827302254 -0.399955771392 0.622827302254 -0.399955771392 -0.151222481441 -0.0226216784984
1.08 0.0277661152288 -0.203268870502 0.568594474713 -0.472044385033 0.568594474713 -0.472044385033 -0.148622252928 0.00848091425932
1.09 0.0229838166926 -0.206288117574 0.505996420252 -0.5369177726 0.505996420252 -0.5369177726 -0.139626495083 0.0392073201335
1.1 0.0186424641516 -0.209303323195 0.435971565478 -0.593578660494 0.435971565478 -0.593578660494 -0.124264514672 0.0682120681433
1.11 0.0146819305951 -0.212479730901 0.359588423063 -0.641148176517 0.359588423063 -0.641148176517 -0.102859430247 0.0941422045326
1.12 0.0109967964094 -0.215962474338 0.278031587598 -0.678885106093 0.278031587598 -0.678885106093 -0.0760330576679 0.115708317579
1.13 0.00744761368591 -0.219864646351 0.192584351954 -0.706207199474 0.192584351954 -0.706207199474 -0.0446943003201 0.131747917356
1.14 0.00386548918956 -0.22425994731 0.104605607571 -0.722707677603 0.104605607571 -0.722707677603 -0.0100106230306 0.141296705245
1.15 6.62791648122e-05 -0.229175299569 0.0155023952817 -0.728169271605 0.0155023952817 -0.728169271605 0.0266354768356 0.143646127561
1.16 -0.00414002057811 -0.234588474301 -0.0733006364091 -0.722571843822 -0.0733006364091 -0.722571843822 0.0637081867032 0.138395513372
1.17 -0.00893601460628 -0.240427354451 -0.160393824672 -0.706093066953 -0.160393824672 -0.706093066953 0.0995904838752 0.125485090739
1.18 -0.0144845957272 -0.24657327354 -0.244414786066 -0.679104183502 -0.244414786066 -0.679104183502 0.132664319382 0.105211424025
1.19 -0.0209155604898 -0.252867539072 -0.324079700297 -0.642157637786 -0.324079700297 -0.642157637786 0.161390167818 0.0782225624956
1.2 -0.0283197500409 -0.259120376211 -0.398210280485 -0.595968272805 -0.398210280485 -0.595968272805 0.184389150643 0.0454944653923
1.21 -0.0367384735196 -0.265122003973 -0.46575666293 -0.541390386715 -0.46575666293 -0.541390386715 0.200510493256 0.00828956503715
1.22 -0.0461659000483 -0.270654407481 -0.525811721701 -0.479389902383 -0.525811721701 -0.479389902383 0.208896096003 -0.0319034211678
1.23 -0.0565437236988 -0.275504491447 -0.577621377242 -0.411017317278 -0.577621377242 -0.411017317278 0.209022824928 -0.0734379050416
1.24 -0.067767271085 -0.279475792138 -0.620586584844 -0.337379981038 -0.620586584844 -0.337379981038 0.200786736297 -0.114615566135
1.25 -0.0796891746251 -0.282400859146 -0.654260018996 -0.259616735531 -0.654260018996 -0.259616735531 0.184565284548 -0.153850832579
1.26 -0.0921300215913 -0.284147109304 -0.678338074359 -0.178877158922 -0.678338074359 -0.178877158922 0.159928385873 -0.188886247878
1.27 -0.104905366943 -0.284587641981 -0.692654540021 -0.0963170236207 -0.692654540021 -0.0963170236207 0.128773652823 -0.218838868228
1.28 -0.117860219133 -0.283571520328 -0.697161509869 -0.0131039728391 -0.697161509869 -0.0131039728391 0.0920680570264 -0.242459238911
1.29 -0.129806514247 -0.281400657372 -0.691855955768 0.0697950278609 -0.691855955768 0.0697950278609 0.048996334055 -0.258952137526
1.3 -0.141876946411 -0.279387972279 -0.678584445054 0.151414366357 -0.678584445054 0.151414366357 0.00684755047523 -0.263056994864
1.31 -0.154464712654 -0.273345041436 -0.65309370831 0.229787913101 -0.65309370831 0.229787913101 -0.0358687763002 -0.262496485079
1.32 -0.165261268537 -0.267742207148 -0.620404656143 0.305540060676 -0.620404656143 0.305540060676 -0.0805904551217 -0.251895515217
1.33 -0.175282512204 -0.26117732254 -0.578750673132 0.376921542899 -0.578750673132 0.376921542899 -0.121623742877 -0.23215829128
1.34 -0.184303901508 -0.253943804838 -0.529153089599 0.442726695059 -0.529153089599 0.442726695059 -0.157957191547 -0.20456169578
1.35 -0.192252364708 -0.246253129461 -0.47219239562 0.50231197248 -0.47219239562 0.50231197248 -0.188263897596 -0.169984789887
1.36 -0.1991123244 -0.23832210489 -0.408543863939 0.554853344863 -0.408543863939 0.554853344863 -0.211029125795 -0.12967062242
1.37 -0.204919171022 -0.230367019348 -0.339003489327 0.599573197781 -0.339003489327 0.599573197781 -0.225146300555 -0.0852512058384
1.38 -0.209757968556 -0.22258885999 -0.264475420592 0.635765708615 -0.264475420592 0.635765708615 -0.229914944146 -0.0385345752529
1.39 -0.213756764716 -0.215163610608 -0.18596768752 0.662815847312 -0.18596768752 0.662815847312 -0.224971256887 0.00851599219396
1.4 -0.217084449538 -0.208228693639 -0.104587823693 0.68021928628 -0.104587823693 0.68021928628 -0.210359717052 0.0538614445641
1.41 -0.219936689416 -0.201876274068 -0.0215318602106 0.687606580006 -0.0215318602106 0.687606580006 -0.186563631599 0.0954841638218
1.42 -0.222525584906 -0.196144110509 0.0619327448069 0.68476594547 0.0619327448069 0.68476594547 -0.154503430509 0.131492957609
1.43 -0.225063419327 -0.191015132697 0.144494177427 0.671664703987 0.144494177427 0.671664703987 -0.11550619732 0.160224528851
1.44 -0.227752912729 -0.186419723183 0.224830673612 0.648455943954 0.224830673612 0.648455943954 -0.071239262573 0.1803396144
1.45 -0.230773919859 -0.182233943691 0.301634430789 0.615485168649 0.301634430789 0.615485168649 -0.0236357057012 0.19088234042
1.46 -0.234265295972 -0.178287181664 0.373653705372 0.573296093413 0.373653705372 0.573296093413 0.0251948921963 0.191348444047
1.47 -0.238317076846 -0.174378328454 0.439732333171 0.522614071654 0.439732333171 0.522614071654 0.0730837369579 0.181714468574
1.48 -0.242963051457 -0.170286726699 0.49884068879 0.464324078583 0.49884068879 0.464324078583 0.117917592715 0.162437446181
1.49 -0.248178402108 -0.165788351987 0.550100515973 0.399443039143 0.550100515973 0.399443039143 0.157746754356 0.134422817631
1.5 -0.253880987672 -0.160668594072 0.592802304176 0.329088010071 0.592802304176 0.329088010071 0.19088188435 0.0989705205991
1.51 -0.259937417413 -0.154733889623 0.626408267914 0.254443816188 0.626408267914 0.254443816188 0.215964071576 0.0577005302394
