! Generated by SPUtility circuit solver
# GHZ S RI R 50
0.01 0.0921858559018 -0.00405716345001 0.899534173369 -0.11629346469 0 0 0 0 0.899534173369 -0.11629346469 0.0903818594974 -0.0128837929757 0 0 0 0 0 0 0 0 0.0921858570269 -0.00405716565626 0.899534172547 -0.116293462549 0 0 0 0 0.899534172547 -0.116293462549 0.0903818603834 -0.0128837955831
0.02 0.0938887972801 -0.00933479697646 0.876251116121 -0.229651620012 0 0 0 0 0.876251116121 -0.229651620012 0.0868535702086 -0.0260908072142 0 0 0 0 0 0 0 0 0.0938888014611 -0.00933480184762 0.876251112618 -0.229651614434 0 0 0 0 0.876251112618 -0.229651614434 0.0868535727956 -0.0260908133734
0.03 0.0955057545303 -0.0154921302341 0.838860378414 -0.338686018242 0 0 0 0 0.838860378414 -0.338686018242 0.0800231612262 -0.0381910479823 0 0 0 0 0 0 0 0 0.0955057640337 -0.0154921392837 0.838860370424 -0.338686007202 0 0 0 0 0.838860370424 -0.338686007202 0.080023166182 -0.0381910604673
0.04 0.0966627624701 -0.0225231641167 0.787913760837 -0.441571476351 0 0 0 0 0.787913760837 -0.441571476351 0.070171192882 -0.0482939772998 0 0 0 0 0 0 0 0 0.0966627796832 -0.0225231802297 0.787913747757 -0.441571456803 0 0 0 0 0.787913747757 -0.441571456803 0.0701711994569 -0.0482940000561
0.05 0.0971582757303 -0.0304300681271 0.724541434052 -0.536694147393 0 0 0 0 0.724541434052 -0.536694147393 0.0580757978597 -0.0557705755434 0 0 0 0 0 0 0 0 0.0971583028304 -0.0304300954132 0.724541416614 -0.53669411261 0 0 0 0 0.724541416614 -0.53669411261 0.0580758026742 -0.0557706132575
0.06 0.0967099564297 -0.0390616596601 0.649946225621 -0.622577728272 0 0 0 0 0.649946225621 -0.622577728272 0.0445233490024 -0.0601475056806 0 0 0 0 0 0 0 0 0.0967099943086 -0.0390617038282 0.649946207183 -0.622577673823 0 0 0 0 0.649946207183 -0.622577673823 0.0445233453395 -0.0601475629454
0.07 0.0950977120458 -0.0481691035679 0.56547159097 -0.697933176777 0 0 0 0 0.56547159097 -0.697933176777 0.0303859167943 -0.0611467771307 0 0 0 0 0 0 0 0 0.0950977625692 -0.048169172662 0.565471574942 -0.697933094262 0 0 0 0 0.565471574942 -0.697933094262 0.0303858943799 -0.0611468566495
0.08 0.0922010933004 -0.057441512973 0.472594617757 -0.761685298381 0 0 0 0 0.472594617757 -0.761685298381 0.0165727825248 -0.0587101252603 0 0 0 0 0 0 0 0 0.0922011547969 -0.0574416163615 0.472594615318 -0.761685181413 0 0 0 0 0.472594615318 -0.761685181413 0.01657272774 -0.058710226155
0.09 0.0880005470022 -0.0665574640419 0.372891079157 -0.812968600715 0 0 0 0 0.372891079157 -0.812968600715 0.00398040703361 -0.0530072851223 0 0 0 0 0 0 0 0 0.0880006167871 -0.0665576137421 0.372891102581 -0.812968441897 0 0 0 0 0.372891102581 -0.812968441897 0.00398030366132 -0.053007401393
0.1 0.0825636684168 -0.0752165493769 0.268011615882 -0.851128571577 0 0 0 0 0.268011615882 -0.851128571577 -0.00656850683066 -0.0444314498255 0 0 0 0 0 0 0 0 0.0825637403064 -0.075216758706 0.268011682177 -0.851128368179 0 0 0 0 0.268011682177 -0.851128368179 -0.00656867638386 -0.0444315682302
0.11 0.0760356566923 -0.0831442512961 0.159651428873 -0.875711096793 0 0 0 0 0.159651428873 -0.875711096793 -0.014376274576 -0.0335889610707 0 0 0 0 0 0 0 0 0.0760357213521 -0.0831445377998 0.159651560522 -0.875710847386 0 0 0 0 0.159651560522 -0.875710847386 -0.0143765270928 -0.0335890593219
0.12 0.0685946440054 -0.0901466294549 0.0495502752928 -0.886503406831 0 0 0 0 0.0495502752928 -0.886503406831 -0.0189339436043 -0.021227086843 0 0 0 0 0 0 0 0 0.0685946867685 -0.0901470129904 0.0495505002919 -0.886503115453 0 0 0 0 0.0495505002919 -0.886503115453 -0.0189342926278 -0.0212271321484
0.13 0.060456167654 -0.0960786857662 -0.0605653940336 -0.883495658758 0 0 0 0 -0.0605653940336 -0.883495658758 -0.0199416924187 -0.00821213830268 0 0 0 0 0 0 0 0 0.0604561667433 -0.0960791890845 -0.0605650399094 -0.883495337691 0 0 0 0 -0.0605650399094 -0.883495337691 -0.0199421432428 -0.00821208630023
0.14 0.0518496272518 -0.100853381413 -0.168997450229 -0.866887639051 0 0 0 0 -0.168997450229 -0.866887639051 -0.0173322100961 0.00453960942059 0 0 0 0 0 0 0 0 0.0518495508937 -0.100854030185 -0.168996924166 -0.866887312868 0 0 0 0 -0.168996924166 -0.866887312868 -0.0173327558026 0.00453981529344
0.15 0.043004485095 -0.104438547678 -0.274100853948 -0.837081520505 0 0 0 0 -0.274100853948 -0.837081520505 -0.0112728536553 0.0161226298772 0 0 0 0 0 0 0 0 0.0430042883397 -0.104439369627 -0.274100126722 -0.837081220766 0 0 0 0 -0.274100126722 -0.837081220766 -0.0112734678552 0.0161230591049
0.16 0.0341397253525 -0.106851324017 -0.374307461792 -0.794670516779 0 0 0 0 -0.374307461792 -0.794670516779 -0.00215384888436 0.0257002202109 0 0 0 0 0 0 0 0 0.034139345333 -0.106852351202 -0.374306450939 -0.794670317068 0 0 0 0 -0.374306450939 -0.794670317068 -0.00215447721873 0.0257009527826
0.17 0.025449707196 -0.108142460767 -0.468151876844 -0.740434683343 0 0 0 0 -0.468151876844 -0.740434683343 0.00944813302482 0.0325576463905 0 0 0 0 0 0 0 0 0.0254490530679 -0.108143723026 -0.468150550619 -0.74043466577 0 0 0 0 -0.468150550619 -0.74043466577 0.00944758593587 0.0325587700353
0.18 0.0171200027382 -0.10842327671 -0.554271443119 -0.675287537922 0 0 0 0 -0.554271443119 -0.675287537922 0.0227645189392 0.0361429309577 0 0 0 0 0 0 0 0 0.0171189447428 -0.108424804837 -0.554269734402 -0.675287852406 0 0 0 0 -0.554269734402 -0.675287852406 0.022764206367 0.0361445345495
0.19 0.00929056012306 -0.107808233474 -0.631446464216 -0.600317786933 0 0 0 0 -0.631446464216 -0.600317786933 0.0369405858253 0.0361105433642 0 0 0 0 0 0 0 0 0.00928890461607 -0.107810047735 -0.631444322011 -0.600318654638 0 0 0 0 -0.631444322011 -0.600318654638 0.0369407488099 0.0361127047175
0.2 0.00208483765836 -0.106427186669 -0.698611116004 -0.51676877684 0 0 0 0 -0.698611116004 -0.51676877684 0.0510457295387 0.0323563737665 0 0 0 0 0 0 0 0 0.00208228266343 -0.106429285031 -0.698608534595 -0.516770528761 0 0 0 0 -0.698608534595 -0.516770528761 0.0510467472736 0.0323591322513
0.21 -0.00441529551913 -0.104438550063 -0.754862699153 -0.425961757209 0 0 0 0 -0.754862699153 -0.425961757209 0.0641584354909 0.0249858935613 0 0 0 0 0 0 0 0 -0.00441925479945 -0.104440859266 -0.754859751021 -0.42596495306 0 0 0 0 -0.754859751021 -0.42596495306 0.0641609301343 0.0249891804527
0.22 -0.0101700436389 -0.102009779346 -0.799460620936 -0.32928938001 0 0 0 0 -0.799460620936 -0.32928938001 0.0754099344357 0.0143137062072 0 0 0 0 0 0 0 0 -0.0101763393593 -0.102011989094 -0.799457660187 -0.329295029193 0 0 0 0 -0.799457660187 -0.329295029193 0.0754150025879 0.0143171236689
0.23 -0.0151751602451 -0.0993038814769 -0.831832339447 -0.228211334185 0 0 0 0 -0.831832339447 -0.228211334185 0.084028374089 0.00085536884025 0 0 0 0 0 0 0 0 -0.0151856947907 -0.0993046860693 -0.831830843173 -0.228221426065 0 0 0 0 -0.831830843173 -0.228221426065 0.0840381007917 0.00085725865366
0.24 -0.0194581979876 -0.0964760110799 -0.851575133671 -0.124238146696 0 0 0 0 -0.851575133671 -0.124238146696 0.0893844528622 -0.0146963201234 0 0 0 0 0 0 0 0 -0.0194757181076 -0.0964685987666 -0.851582486893 -0.124255242658 0 0 0 0 -0.851582486893 -0.124255242658 0.0894011952979 -0.0147039399496
0.25 -0.0230986146905 -0.0936634806209 -0.858467078146 -0.0189388042032 0 0 0 0 -0.858467078146 -0.0189388042032 0.0910554633977 -0.0315182663383 0 0 0 0 0 0 0 0 -0.0231017185518 -0.0936358423221 -0.858494750934 -0.018939503963 0 0 0 0 -0.858494750934 -0.018939503963 0.0910537708563 -0.0315461802984
0.26 -0.0261525182322 -0.0909296804762 -0.852520407439 0.0861558475153 0 0 0 0 -0.852520407439 0.0861558475153 0.0887675422997 -0.0487522528562 0 0 0 0 0 0 0 0 -0.0261400553341 -0.0909167857073 -0.852531195499 0.0861705895093 0 0 0 0 -0.852531195499 0.0861705895093 0.0887507401608 -0.0487610264887
0.27 -0.0286931188956 -0.0884022720695 -0.83383643921 0.189515366824 0 0 0 0 -0.83383643921 0.189515366824 0.0824805325713 -0.0654036460634 0 0 0 0 0 0 0 0 -0.0286825725537 -0.0883977648277 -0.833838175265 0.189527289116 0 0 0 0 -0.833838175265 0.189527289116 0.0824676413323 -0.0654027523338
0.28 -0.0308387870855 -0.0861410692668 -0.802745865813 0.289602115695 0 0 0 0 -0.802745865813 0.289602115695 0.0724125933374 -0.0805458692791 0 0 0 0 0 0 0 0 -0.0308306861985 -0.0861398766437 -0.802744019397 0.289610898798 0 0 0 0 -0.802744019397 0.289610898798 0.0724037089318 -0.0805412305373
0.29 -0.0326958565764 -0.08417865384 -0.759759600779 0.384944629636 0 0 0 0 -0.759759600779 0.384944629636 0.0589781125289 -0.0933205369115 0 0 0 0 0 0 0 0 -0.0326896902316 -0.084179100959 -0.7597559943 0.384950859081 0 0 0 0 -0.7597559943 0.384950859081 0.0589725659369 -0.093314178862
0.3 -0.0343681484792 -0.0825266139969 -0.705559646711 0.474142897571 0 0 0 0 -0.705559646711 0.474142897571 0.0427837544243 -0.102982989799 0 0 0 0 0 0 0 0 -0.0343635956908 -0.0825279712697 -0.705555125399 0.474146920971 0 0 0 0 -0.705555125399 0.474146920971 0.0427811557836 -0.102975950087
0.31 -0.0359527376515 -0.0811765329071 -0.640992032051 0.555888673237 0 0 0 0 -0.640992032051 0.555888673237 0.0245988450917 -0.108947781257 0 0 0 0 0 0 0 0 -0.0359496310859 -0.0811783741483 -0.64098715358 0.555890666931 0 0 0 0 -0.64098715358 0.555890666931 0.0245989439289 -0.108940818843
0.32 -0.0375337921811 -0.0801051307827 -0.567056106899 0.62898618804 0 0 0 0 -0.567056106899 0.62898618804 0.00532011233066 -0.110826399098 0 0 0 0 0 0 0 0 -0.03753204601 -0.0801071265285 -0.567051345701 0.628986264907 0 0 0 0 -0.567051345701 0.628986264907 0.00532266808058 -0.110820215041
0.33 -0.0391888782019 -0.0792647696559 -0.48489209764 0.69237044139 0 0 0 0 -0.48489209764 0.69237044139 -0.0140382213668 -0.108459405235 0 0 0 0 0 0 0 0 -0.0391885037027 -0.0792666108073 -0.484888032186 0.692368662159 0 0 0 0 -0.484888032186 0.692368662159 -0.014033548135 -0.108454891098
0.34 -0.0411622632089 -0.0785211212397 -0.395762902203 0.745109979324 0 0 0 0 -0.395762902203 0.745109979324 -0.0326517199236 -0.101917225028 0 0 0 0 0 0 0 0 -0.0411633851781 -0.078522672925 -0.395760031463 0.745106580373 0 0 0 0 -0.395760031463 0.745106580373 -0.0326456284444 -0.101914897412
0.35 -0.0431077252406 -0.0777257175127 -0.301103159256 0.786505591276 0 0 0 0 -0.301103159256 0.786505591276 -0.0496904604056 -0.0912705738845 0 0 0 0 0 0 0 0 -0.0431103427043 -0.0777263196871 -0.301101700404 0.786500525867 0 0 0 0 -0.301101700404 0.786500525867 -0.0496826750463 -0.0912707433616
0.36 -0.0452421743091 -0.0772416839115 -0.202130341632 0.815926990314 0 0 0 0 -0.202130341632 0.815926990314 -0.0639617882474 -0.0769695718329 0 0 0 0 0 0 0 0 -0.0452461866423 -0.0772409295666 -0.202131132703 0.81592048498 0 0 0 0 -0.202131132703 0.81592048498 -0.0639532372893 -0.076973234416
0.37 -0.0476358105698 -0.0765423651983 -0.100620166791 0.832851191475 0 0 0 0 -0.100620166791 0.832851191475 -0.0748494834313 -0.0599587733218 0 0 0 0 0 0 0 0 -0.0476412473633 -0.0765394974834 -0.100624174284 0.832843751514 0 0 0 0 -0.100624174284 0.832843751514 -0.0748414312549 -0.0599667132631
0.38 -0.0502544794146 -0.0757154336723 0.00200026670282 0.837261552626 0 0 0 0 0.00200026670282 0.837261552626 -0.0818396424206 -0.0409344395326 0 0 0 0 0 0 0 0 -0.050261165747 -0.0757092721924 0.00199179253352 0.837253863495 0 0 0 0 0.00199179253352 0.837253863495 -0.0818334587544 -0.0409476928054
0.39 -0.0530682328462 -0.0746887699034 0.104169204493 0.829093631547 0 0 0 0 0.104169204493 0.829093631547 -0.0845591249442 -0.0207803937447 0 0 0 0 0 0 0 0 -0.0530754460699 -0.0746772296322 0.104154174536 0.829087116878 0 0 0 0 0.104154174536 0.829087116878 -0.0845571350311 -0.0208006566172
0.4 -0.0560477381582 -0.0734081432971 0.204343010041 0.808504831105 0 0 0 0 0.204343010041 0.808504831105 -0.082855857406 -0.000447933274756 0 0 0 0 0 0 0 0 -0.056052738811 -0.0733871337689 0.204317385809 0.808503321105 0 0 0 0 0.204317385809 0.808503321105 -0.0828633088563 -0.00047875047094
0.41 -0.0591906018193 -0.0718610717431 0.300949120438 0.775794099637 0 0 0 0 0.300949120438 0.775794099637 -0.0767764637304 0.0191194024507 0 0 0 0 0 0 0 0 -0.0591802470247 -0.0718226798278 0.300904849137 0.775813310928 0 0 0 0 0.300904849137 0.775813310928 -0.0768127368491 0.019070124062
0.42 -0.0627239375838 -0.0699850253316 0.391536119915 0.731468024061 0 0 0 0 0.391536119915 0.731468024061 -0.066451033522 0.0368094060616 0 0 0 0 0 0 0 0 -0.0626220541403 -0.0699674837457 0.391516516496 0.731602450252 0 0 0 0 0.391516516496 0.731602450252 -0.0666368322579 0.0367902191296
0.43 -0.0651363100284 -0.0658744152937 0.480317566653 0.686798540292 0 0 0 0 0.480317566653 0.686798540292 -0.0583106733614 0.0557970532685 0 0 0 0 0 0 0 0 -0.0651927969758 -0.065872303692 0.480346067351 0.686697653737 0 0 0 0 0.480346067351 0.686697653737 -0.0581698773364 0.0559071113322
0.44 -0.0673541922607 -0.0646911878348 0.556452541611 0.609361726545 0 0 0 0 0.556452541611 0.609361726545 -0.0332271470095 0.0653248079939 0 0 0 0 0 0 0 0 -0.0673510315822 -0.0646958581872 0.55643891036 0.609355204268 0 0 0 0 0.55643891036 0.609355204268 -0.0331923274553 0.0653230875227
0.45 -0.0706203025421 -0.0609957598238 0.625226140365 0.538919021737 0 0 0 0 0.625226140365 0.538919021737 -0.0176857637552 0.0720123704192 0 0 0 0 0 0 0 0 -0.0706274769276 -0.061004100013 0.625218184402 0.538923942785 0 0 0 0 0.625218184402 0.538923942785 -0.0176721287422 0.0720172480058
0.46 -0.0731384412258 -0.0571721410011 0.684993156351 0.457858391109 0 0 0 0 0.684993156351 0.457858391109 0.00223064660178 0.0758279204844 0 0 0 0 0 0 0 0 -0.0731543627731 -0.0571742752363 0.684984516669 0.457869922652 0 0 0 0 0.684984516669 0.457869922652 0.00223957720298 0.0758394725563
0.47 -0.0752492832506 -0.0530164735824 0.734235967497 0.37022355352 0 0 0 0 0.734235967497 0.37022355352 0.0226135116381 0.0754696806635 0 0 0 0 0 0 0 0 -0.0752722603603 -0.0530078457165 0.734227414222 0.37024500318 0 0 0 0 0.734227414222 0.37024500318 0.0226243431758 0.0754890682184
0.48 -0.0769188632196 -0.0485126292197 0.772329074747 0.277460099375 0 0 0 0 0.772329074747 0.277460099375 0.0424319268168 0.0709072554412 0 0 0 0 0 0 0 0 -0.0769467336524 -0.0484863030442 0.772325720898 0.277496875551 0 0 0 0 0.772325720898 0.277496875551 0.0424533737985 0.0709358343859
0.49 -0.0780899755015 -0.0437086033975 0.798774304165 0.1809825502 0 0 0 0 0.798774304165 0.1809825502 0.0608075082951 0.0623800359954 0 0 0 0 0 0 0 0 -0.0781139781189 -0.0436517029021 0.798791180963 0.181040408876 0 0 0 0 0.798791180963 0.181040408876 0.0608560123216 0.0624133882843
0.5 -0.0787311321589 -0.0386654547142 0.813228622521 0.0822567270281 0 0 0 0 0.813228622521 0.0822567270281 0.0769563483956 0.0503398170488 0 0 0 0 0 0 0 0 -0.0787141260242 -0.038567233209 0.813302614028 0.0823211899092 0 0 0 0 0.813302614028 0.0823211899092 0.0770529010517 0.0503431000686
0.51 -0.0787843039678 -0.0333600354356 0.8155778187 -0.0171952620724 0 0 0 0 0.8155778187 -0.0171952620724 0.0903118945906 0.0354024088283 0 0 0 0 0 0 0 0 -0.0786793038685 -0.0332896331889 0.815702294628 -0.0172097045897 0 0 0 0 0.815702294628 -0.0172097045897 0.0903965106204 0.0353114250698
0.52 -0.0780915239563 -0.0279138800944 0.805955969511 -0.115990671533 0 0 0 0 0.805955969511 -0.115990671533 0.100373981151 0.0181002211645 0 0 0 0 0 0 0 0 -0.0779844438605 -0.027924636339 0.806027222707 -0.116070972736 0 0 0 0 0.806027222707 -0.116070972736 0.100372012011 0.0179930040867
0.53 -0.0766810380584 -0.0225283698242 0.784462525756 -0.212733694631 0 0 0 0 0.784462525756 -0.212733694631 0.106674202676 -0.00077226014372 0 0 0 0 0 0 0 0 -0.0766080363071 -0.0225699705169 0.784484116029 -0.212815260046 0 0 0 0 0.784484116029 -0.212815260046 0.106631072672 -0.000845497984723
0.54 -0.0745909981735 -0.0172770441035 0.751453047419 -0.305968975864 0 0 0 0 0.751453047419 -0.305968975864 0.10905642094 -0.0203528045276 0 0 0 0 0 0 0 0 -0.0745429295233 -0.0173258327423 0.751447991535 -0.306038096867 0 0 0 0 0.751447991535 -0.306038096867 0.109000445654 -0.0203957239355
0.55 -0.0718311470067 -0.0122455227719 0.707476169439 -0.394336508159 0 0 0 0 0.707476169439 -0.394336508159 0.107538907256 -0.0398281175381 0 0 0 0 0 0 0 0 -0.0717996486342 -0.0122946636891 0.707456027904 -0.394392645369 0 0 0 0 0.707456027904 -0.394392645369 0.107480631276 -0.0398477912192
0.56 -0.0684272771043 -0.0075280563233 0.653188059961 -0.476462472545 0 0 0 0 0.653188059961 -0.476462472545 0.10227233357 -0.0584096455542 0 0 0 0 0 0 0 0 -0.0684067416105 -0.0075769442228 0.653157869492 -0.47650688632 0 0 0 0 0.653157869492 -0.47650688632 0.102217318331 -0.058409714235
0.57 -0.0644214935212 -0.00322458671767 0.589486503049 -0.551513343238 0 0 0 0 0.589486503049 -0.551513343238 0.0936319328631 -0.0754608802764 0 0 0 0 0 0 0 0 -0.0644111808023 -0.00326971283308 0.589451165259 -0.551546161088 0 0 0 0 0.589451165259 -0.551546161088 0.0935825428578 -0.0754475642768
0.58 -0.0598798949475 0.000581171920464 0.517284736404 -0.618051643869 0 0 0 0 0.517284736404 -0.618051643869 0.0819999094025 -0.0902973424811 0 0 0 0 0 0 0 0 -0.0598771440741 0.000539388313569 0.517246250059 -0.618073806642 0 0 0 0 0.517246250059 -0.618073806642 0.0819585647882 -0.0902725564228
0.59 -0.0548817924923 0.00381389212068 0.437681287684 -0.6752728171 0 0 0 0 0.437681287684 -0.6752728171 0.067938998735 -0.102453162255 0 0 0 0 0 0 0 0 -0.0548851557044 0.00377584399308 0.437641698442 -0.675284940667 0 0 0 0 0.437641698442 -0.675284940667 0.0679074012353 -0.102419549484
0.6 -0.0495217357298 0.00641601537312 0.351856742732 -0.722367813728 0 0 0 0 0.351856742732 -0.722367813728 0.052067930276 -0.111568878954 0 0 0 0 0 0 0 0 -0.0495301154305 0.00638212135566 0.351817922771 -0.72237049531 0 0 0 0 0.351817922771 -0.72237049531 0.0520473859353 -0.111529192023
0.61 -0.0439041358059 0.00834960623969 0.261078336245 -0.758670843041 0 0 0 0 0.261078336245 -0.758670843041 0.0350431456543 -0.117434899818 0 0 0 0 0 0 0 0 -0.0439165559121 0.00832031640565 0.261042065698 -0.758664789929 0 0 0 0 0.261042065698 -0.758664789929 0.035034501021 -0.117392026918
0.62 -0.038138576459 0.00959537448953 0.166683494455 -0.783671678155 0 0 0 0 0.166683494455 -0.783671678155 0.0175233979986 -0.119966434589 0 0 0 0 0 0 0 0 -0.0381540594027 0.00957114298639 0.166651480799 -0.783657800267 0 0 0 0 0.166651480799 -0.783657800267 0.0175269816478 -0.119923390708
0.63 -0.0323354082798 0.0101553471334 0.0700622594555 -0.797022902237 0 0 0 0 0.0700622594555 -0.797022902237 0.00015324471615 -0.119203703497 0 0 0 0 0 0 0 0 -0.032352893846 0.0101365909128 0.0700361255275 -0.797002383083 0 0 0 0 0.0700361255275 -0.797002383083 0.000168794902095 -0.119163601902
0.64 -0.0266017847065 0.010053753756 -0.0273616693042 -0.798545910382 0 0 0 0 -0.0273616693042 -0.798545910382 -0.0164658996314 -0.115310705914 0 0 0 0 0 0 0 0 -0.0266200688484 0.0100408162808 -0.0273804204743 -0.798520285821 0 0 0 0 -0.0273804204743 -0.798520285821 -0.0164393593999 -0.115276717231
0.65 -0.0210385806639 0.00933261202168 -0.124152250438 -0.788233172071 0 0 0 0 -0.124152250438 -0.788233172071 -0.0317990565342 -0.108555368364 0 0 0 0 0 0 0 0 -0.0210562781274 0.00932573273527 -0.124162364828 -0.7882044856 0 0 0 0 -0.124162364828 -0.7882044856 -0.0317635821778 -0.108530582515
0.66 -0.0157348796834 0.0080526208466 -0.218880221707 -0.766250728396 0 0 0 0 -0.218880221707 -0.766250728396 -0.0453941957984 -0.0993049705524 0 0 0 0 0 0 0 0 -0.0157503883949 0.00805188277477 -0.21888092471 -0.766221448439 0 0 0 0 -0.21888092471 -0.766221448439 -0.0453528975614 -0.0992917628048
0.67 -0.0107643046736 0.00629558840009 -0.310145326929 -0.732937139915 0 0 0 0 -0.310145326929 -0.732937139915 -0.0569645953091 -0.0880598058117 0 0 0 0 0 0 0 0 -0.0107757296089 0.00630081165888 -0.310135352942 -0.732909817688 0 0 0 0 -0.310135352942 -0.732909817688 -0.0569197596433 -0.0880614593138
