! Generated by SPUtility circuit solver
# GHZ S RI R 50
0.01 -4.0465303137e-06 -0.000942470757686 0.999997137813 -0.00219911290414 0.999997137813 -0.00219911290415 -9.86998528363e-08 -0.000942479439446
0.02 -1.61860313651e-05 -0.00188489928482 0.999988551237 -0.00439821408762 0.999988551237 -0.00439821408764 -3.94845114909e-07 -0.00188496873864
0.03 -3.64182334816e-05 -0.00282724335139 0.999974240223 -0.00659729182921 0.999974240223 -0.00659729182919 -8.885728976e-07 -0.00282747775695
0.04 -6.47426871995e-05 -0.00376946072776 0.999954204689 -0.00879633440575 0.999954204689 -0.00879633440574 -1.58011171466e-06 -0.00377001635234
0.05 -0.000101158763245 -0.00471150918535 0.999928444522 -0.0109953300918 0.999928444522 -0.0109953300918 -2.46978147622e-06 -0.00471259438095
0.06 -0.000145665652511 -0.00565334649676 0.999896959576 -0.0131942671585 0.999896959576 -0.0131942671585 -3.55799347759e-06 -0.00565522169639
0.07 -0.000198262366034 -0.00659493043622 0.999859749672 -0.0153931338731 0.999859749672 -0.0153931338731 -4.84525039105e-06 -0.00659790814939
0.08 -0.000258947734947 -0.0075362187797 0.9998168146 -0.0175919184977 0.9998168146 -0.0175919184977 -6.33214624531e-06 -0.00754066358677
0.09 -0.000327720410448 -0.00847716930545 0.999768154116 -0.0197906092889 0.999768154116 -0.0197906092889 -8.01936641287e-06 -0.00848349785115
0.1 -0.000404578863744 -0.00941773979419 0.999713767945 -0.0219891944965 0.999713767945 -0.0219891944965 -9.90768758687e-06 -0.00942642078022
0.11 -0.000489521385998 -0.0103578880294 0.99965365578 -0.0241876623631 0.99965365578 -0.0241876623631 -1.19979777584e-05 -0.0103694422061
0.12 -0.000582546088265 -0.0112975717977 0.999587817281 -0.026386001123 0.999587817281 -0.026386001123 -1.42911961916e-05 -0.0113125719547
0.13 -0.000683650901424 -0.0122367488891 0.999516252077 -0.0285841990016 0.999516252077 -0.0285841990016 -1.67883933934e-05 -0.0122558198453
0.14 -0.000792833576108 -0.0131753770975 0.999438959764 -0.0307822442144 0.999438959764 -0.0307822442144 -1.94907110851e-05 -0.0131991956896
0.15 -0.000910091682614 -0.0141134142207 0.999355939908 -0.0329801249663 0.999355939908 -0.0329801249663 -2.23993821646e-05 -0.0141427092915
0.16 -0.00103542261082 -0.015050818061 0.999267192042 -0.0351778294508 0.999267192042 -0.0351778294508 -2.55157306717e-05 -0.0150863704461
0.17 -0.00116882357009 -0.0159875464254 0.999172715667 -0.0373753458491 0.999172715667 -0.0373753458491 -2.88411717497e-05 -0.0160301889393
0.18 -0.00131029158917 -0.0169235571259 0.999072510255 -0.0395726623292 0.999072510255 -0.0395726623292 -3.23772116e-05 -0.0169741745472
0.19 -0.00145982351609 -0.0178588079799 0.998966575244 -0.0417697670455 0.998966575244 -0.0417697670455 -3.61254474397e-05 -0.0179183370353
0.2 -0.00161741601804 -0.0187932568104 0.998854910042 -0.0439666481374 0.998854910042 -0.0439666481374 -4.0087567452e-05 -0.0188626861583
0.21 -0.00178306558126 -0.0197268614467 0.998737514028 -0.046163293729 0.998737514028 -0.046163293729 -4.42653507363e-05 -0.0198072316587
0.22 -0.0019567685109 -0.0206595797241 0.998614386547 -0.0483596919279 0.998614386547 -0.048359691928 -4.86606672554e-05 -0.0207519832671
0.23 -0.0021385209309 -0.0215913694848 0.998485526916 -0.050555830825 0.998485526916 -0.050555830825 -5.32754777764e-05 -0.0216969507011
0.24 -0.00232831878385 -0.0225221885781 0.998350934421 -0.0527516984927 0.998350934421 -0.0527516984927 -5.81118338158e-05 -0.0226421436644
0.25 -0.00252615783084 -0.0234519948604 0.998210608317 -0.0549472829852 0.998210608317 -0.0549472829852 -6.31718775743e-05 -0.0235875718469
0.26 -0.00273203365131 -0.0243807461962 0.998064547829 -0.0571425723368 0.998064547829 -0.0571425723368 -6.84578418737e-05 -0.0245332449236
0.27 -0.0029459416429 -0.0253084004578 0.997912752155 -0.0593375545617 0.997912752155 -0.0593375545617 -7.39720500887e-05 -0.0254791725539
0.28 -0.00316787702128 -0.026234915526 0.997755220459 -0.0615322176529 0.997755220459 -0.0615322176529 -7.97169160757e-05 -0.0264253643814
0.29 -0.00339783481997 -0.0271602492902 0.99759195188 -0.0637265495816 0.99759195188 -0.0637265495816 -8.5694944101e-05 -0.0273718300329
0.3 -0.00363580989021 -0.0280843596494 0.997422945525 -0.0659205382961 0.997422945525 -0.0659205382961 -9.19087287639e-05 -0.0283185791179
0.31 -0.00388179690071 -0.0290072045115 0.997248200475 -0.0681141717214 0.997248200475 -0.0681141717214 -9.83609549183e-05 -0.0292656212282
0.32 -0.00413579033752 -0.0299287417947 0.997067715779 -0.070307437758 0.997067715779 -0.070307437758 -0.000105054397588 -0.0302129659369
0.33 -0.0043977845038 -0.0308489294273 0.996881490461 -0.0725003242815 0.996881490461 -0.0725003242815 -0.000111991921886 -0.031160622798
0.34 -0.00466777351965 -0.031767725348 0.996689523515 -0.0746928191416 0.996689523515 -0.0746928191416 -0.000119176482924 -0.0321086013457
0.35 -0.0049457513219 -0.0326850875067 0.996491813909 -0.0768849101612 0.996491813909 -0.0768849101612 -0.00012661112572 -0.0330569110941
0.36 -0.00523171166387 -0.0336009738646 0.996288360582 -0.0790765851361 0.996288360582 -0.0790765851361 -0.000134298985109 -0.0340055615358
0.37 -0.0055256481152 -0.0345153423946 0.996079162447 -0.0812678318335 0.996079162447 -0.0812678318335 -0.000142243285644 -0.0349545621423
0.38 -0.00582755406157 -0.0354281510818 0.99586421839 -0.083458637992 0.99586421839 -0.083458637992 -0.000150447341496 -0.0359039223625
0.39 -0.00613742270455 -0.0363393579236 0.99564352727 -0.0856489913201 0.99564352727 -0.0856489913201 -0.000158914556348 -0.0368536516226
0.4 -0.00645524706129 -0.0372489209307 0.99541708792 -0.087838879496 0.99541708792 -0.087838879496 -0.000167648423298 -0.0378037593254
0.41 -0.00678101996433 -0.0381567981267 0.995184899149 -0.0900282901666 0.995184899149 -0.0900282901666 -0.00017665252474 -0.0387542548493
0.42 -0.00711473406134 -0.0390629475492 0.994946959739 -0.0922172109467 0.994946959739 -0.0922172109467 -0.000185930532263 -0.0397051475483
0.43 -0.00745638181488 -0.0399673272499 0.994703268446 -0.0944056294181 0.994703268446 -0.0944056294181 -0.000195486206524 -0.0406564467509
0.44 -0.00780595550214 -0.0408698952949 0.994453824003 -0.0965935331293 0.994453824003 -0.0965935331293 -0.000205323397139 -0.0416081617597
0.45 -0.00816344721465 -0.0417706097654 0.994198625119 -0.0987809095944 0.994198625119 -0.0987809095944 -0.00021544604256 -0.0425603018505
0.46 -0.00852884885808 -0.042669428758 0.993937670478 -0.100967746292 0.993937670478 -0.100967746292 -0.000225858169948 -0.0435128762721
0.47 -0.00890215215192 -0.0435663103852 0.99367095874 -0.103154030666 0.99367095874 -0.103154030666 -0.000236563895048 -0.0444658942454
0.48 -0.00928334862921 -0.0444612127756 0.993398488544 -0.105339750122 0.993398488544 -0.105339750122 -0.000247567422058 -0.0454193649628
0.49 -0.0096724296363 -0.0453540940747 0.993120258503 -0.107524892029 0.993120258503 -0.107524892029 -0.000258873043496 -0.0463732975877
0.5 -0.0100693863325 -0.0462449124451 0.992836267212 -0.109709443719 0.992836267212 -0.109709443719 -0.000270485140059 -0.0473277012536
0.51 -0.0104742096898 -0.0471336260668 0.992546513239 -0.111893392484 0.992546513239 -0.111893392484 -0.000282408180489 -0.0482825850639
0.52 -0.0108868904928 -0.0480201931384 0.992250995136 -0.114076725577 0.992250995136 -0.114076725577 -0.000294646721426 -0.0492379580909
0.53 -0.0113074193378 -0.0489045718766 0.991949711429 -0.11625943021 0.991949711429 -0.11625943021 -0.000307205407261 -0.0501938293752
0.54 -0.0117357866334 -0.0497867205173 0.991642660628 -0.118441493554 0.991642660628 -0.118441493554 -0.000320088969986 -0.0511502079255
0.55 -0.0121719825993 -0.0506665973158 0.991329841219 -0.120622902739 0.991329841219 -0.120622902739 -0.000333302229045 -0.0521071027173
0.56 -0.0126159972666 -0.0515441605477 0.99101125167 -0.122803644853 0.99101125167 -0.122803644853 -0.00034685009117 -0.0530645226928
0.57 -0.0130678204772 -0.0524193685088 0.990686890431 -0.124983706939 0.990686890431 -0.124983706939 -0.000360737550227 -0.0540224767602
0.58 -0.0135274418837 -0.0532921795159 0.990356755932 -0.127163075999 0.990356755932 -0.127163075999 -0.000374969687051 -0.0549809737928
0.59 -0.0139948509486 -0.0541625519074 0.990020846585 -0.129341738986 0.990020846585 -0.129341738986 -0.000389551669276 -0.0559400226287
0.6 -0.0144700369445 -0.0550304440438 0.989679160785 -0.131519682812 0.989679160785 -0.131519682812 -0.000404488751172 -0.0568996320698
0.61 -0.0149529889537 -0.0558958143078 0.989331696908 -0.133696894341 0.989331696908 -0.133696894341 -0.000419786273462 -0.0578598108817
0.62 -0.0154436958675 -0.0567586211055 0.988978453316 -0.135873360391 0.988978453316 -0.135873360391 -0.000435449663154 -0.0588205677926
0.63 -0.0159421463861 -0.0576188228665 0.988619428354 -0.138049067732 0.988619428354 -0.138049067732 -0.000451484433355 -0.0597819114927
0.64 -0.0164483290183 -0.0584763780444 0.988254620349 -0.140224003086 0.988254620349 -0.140224003086 -0.000467896183086 -0.060743850634
0.65 -0.0169622320811 -0.0593312451176 0.987884027617 -0.142398153127 0.987884027617 -0.142398153127 -0.000484690597099 -0.0617063938291
0.66 -0.0174838436993 -0.0601833825897 0.987507648458 -0.144571504478 0.987507648458 -0.144571504478 -0.000501873445682 -0.0626695496512
0.67 -0.0180131518051 -0.0610327489901 0.987125481156 -0.146744043714 0.987125481156 -0.146744043714 -0.000519450584466 -0.0636333266326
0.68 -0.0185501441381 -0.0618793028747 0.986737523984 -0.148915757358 0.986737523984 -0.148915757358 -0.000537427954225 -0.0645977332652
0.69 -0.0190948082443 -0.0627230028262 0.986343775203 -0.151086631882 0.986343775203 -0.151086631882 -0.000555811580674 -0.0655627779987
0.7 -0.0196471314762 -0.0635638074549 0.985944233059 -0.153256653705 0.985944233059 -0.153256653705 -0.000574607574267 -0.066528469241
0.71 -0.0202071009926 -0.0644016753993 0.985538895788 -0.155425809194 0.985538895788 -0.155425809194 -0.000593822129982 -0.0674948153567
0.72 -0.0207747037575 -0.0652365653264 0.985127761616 -0.157594084663 0.985127761616 -0.157594084663 -0.000613461527109 -0.0684618246672
0.73 -0.0213499265406 -0.066068435933 0.984710828758 -0.159761466371 0.984710828758 -0.159761466371 -0.000633532129038 -0.0694295054495
0.74 -0.0219327559161 -0.0668972459454 0.984288095418 -0.161927940523 0.984288095418 -0.161927940523 -0.00065404038303 -0.0703978659359
0.75 -0.0225231782631 -0.0677229541208 0.983859559791 -0.16409349327 0.983859559791 -0.16409349327 -0.00067499282 -0.0713669143134
0.76 -0.0231211797645 -0.0685455192476 0.983425220067 -0.166258110703 0.983425220067 -0.166258110703 -0.000696396054285 -0.0723366587227
0.77 -0.0237267464072 -0.069364900146 0.982985074423 -0.16842177886 0.982985074423 -0.16842177886 -0.00071825678341 -0.0733071072579
0.78 -0.0243398639813 -0.0701810556687 0.982539121033 -0.170584483722 0.982539121033 -0.170584483722 -0.000740581787856 -0.0742782679659
0.79 -0.0249605180799 -0.0709939447019 0.982087358062 -0.172746211211 0.982087358062 -0.172746211211 -0.000763377930818 -0.0752501488456
0.8 -0.0255886940988 -0.0718035261652 0.981629783671 -0.174906947189 0.981629783671 -0.174906947189 -0.00078665215796 -0.0762227578472
0.81 -0.026224377236 -0.0726097590133 0.981166396014 -0.177066677462 0.981166396014 -0.177066677462 -0.000810411497166 -0.0771961028717
0.82 -0.0268675524909 -0.0734126022356 0.980697193242 -0.179225387775 0.980697193242 -0.179225387775 -0.000834663058294 -0.0781701917705
0.83 -0.0275182046649 -0.0742120148579 0.980222173502 -0.181383063812 0.980222173502 -0.181383063812 -0.000859414032912 -0.0791450323442
0.84 -0.0281763183598 -0.0750079559424 0.979741334937 -0.183539691199 0.979741334937 -0.183539691199 -0.000884671694041 -0.0801206323425
0.85 -0.0288418779785 -0.0758003845886 0.979254675688 -0.185695255498 0.979254675688 -0.185695255498 -0.000910443395895 -0.0810969994632
0.86 -0.0295148677237 -0.0765892599344 0.978762193895 -0.187849742209 0.978762193895 -0.187849742209 -0.000936736573606 -0.0820741413519
0.87 -0.0301952715982 -0.0773745411563 0.978263887696 -0.190003136772 0.978263887696 -0.190003136772 -0.000963558742953 -0.0830520656009
0.88 -0.030883073404 -0.0781561874703 0.977759755231 -0.192155424562 0.977759755231 -0.192155424562 -0.000990917500092 -0.0840307797493
0.89 -0.031578256742 -0.078934158133 0.977249794637 -0.194306590891 0.977249794637 -0.194306590891 -0.00101882052126 -0.0850102912815
0.9 -0.0322808050119 -0.0797084124418 0.976734004055 -0.196456621007 0.976734004055 -0.196456621007 -0.00104727556251 -0.0859906076272
0.91 -0.0329907014114 -0.0804789097362 0.976212381627 -0.198605500092 0.976212381627 -0.198605500092 -0.00107629045941 -0.0869717361606
0.92 -0.033707928936 -0.0812456093983 0.975684925498 -0.200753213265 0.975684925498 -0.200753213265 -0.00110587312675 -0.0879536841996
0.93 -0.0344324703786 -0.0820084708534 0.975151633817 -0.202899745578 0.975151633817 -0.202899745578 -0.00113603155822 -0.0889364590052
0.94 -0.035164308329 -0.0827674535715 0.974612504737 -0.205045082017 0.974612504737 -0.205045082017 -0.00116677382617 -0.0899200677813
0.95 -0.0359034251734 -0.0835225170672 0.974067536416 -0.207189207501 0.974067536416 -0.207189207501 -0.00119810808125 -0.0909045176735
0.96 -0.0366498030944 -0.0842736209013 0.973516727017 -0.209332106882 0.973516727017 -0.209332106882 -0.0012300425521 -0.0918898157687
0.97 -0.0374034240701 -0.0850207246812 0.972960074711 -0.211473764945 0.972960074711 -0.211473764945 -0.00126258554507 -0.0928759690944
0.98 -0.038164269874 -0.0857637880619 0.972397577678 -0.213614166405 0.972397577678 -0.213614166405 -0.00129574544386 -0.0938629846185
0.99 -0.0389323220744 -0.0865027707467 0.971829234102 -0.215753295911 0.971829234102 -0.215753295911 -0.00132953070922 -0.0948508692477
1 -0.0397075620341 -0.0872376324883 0.97125504218 -0.217891138039 0.97125504218 -0.217891138039 -0.00136394987862 -0.0958396298281
1.01 -0.0404899709102 -0.0879683330895 0.970675000117 -0.220027677299 0.970675000117 -0.220027677299 -0.00139901156589 -0.0968292731435
1.02 -0.0412795296531 -0.0886948324043 0.97008910613 -0.222162898128 0.97008910613 -0.222162898128 -0.00143472446093 -0.0978198059154
1.03 -0.0420762190068 -0.0894170903383 0.969497358447 -0.224296784896 0.969497358447 -0.224296784896 -0.00147109732931 -0.0988112348021
1.04 -0.042880019508 -0.0901350668502 0.968899755308 -0.226429321897 0.968899755308 -0.226429321897 -0.00150813901196 -0.0998035663983
1.05 -0.0436909114858 -0.0908487219524 0.968296294968 -0.228560493358 0.968296294968 -0.228560493358 -0.00154585842482 -0.100796807234
1.06 -0.0445088750616 -0.0915580157121 0.967686975695 -0.230690283433 0.967686975695 -0.230690283433 -0.00158426455846 -0.101790963775
1.07 -0.0453338901482 -0.0922629082518 0.967071795772 -0.232818676201 0.967071795772 -0.232818676201 -0.00162336647773 -0.10278604242
1.08 -0.0461659364497 -0.0929633597509 0.966450753498 -0.234945655672 0.966450753498 -0.234945655672 -0.00166317332138 -0.103782049503
1.09 -0.0470049934613 -0.0936593304462 0.96582384719 -0.23707120578 0.96582384719 -0.23707120578 -0.00170369430173 -0.10477899129
1.1 -0.0478510404683 -0.094350780633 0.965191075181 -0.239195310388 0.965191075181 -0.239195310388 -0.00174493870423 -0.105776873979
1.11 -0.0487040565464 -0.0950376706661 0.964552435824 -0.241317953283 0.964552435824 -0.241317953283 -0.00178691588713 -0.106775703703
1.12 -0.0495640205608 -0.0957199609608 0.963907927491 -0.243439118178 0.963907927491 -0.243439118178 -0.00182963528108 -0.107775486523
1.13 -0.0504309111659 -0.0963976119938 0.963257548575 -0.245558788714 0.963257548575 -0.245558788714 -0.00187310638872 -0.108776228431
1.14 -0.0513047068053 -0.0970705843044 0.962601297489 -0.247676948452 0.962601297489 -0.247676948452 -0.00191733878431 -0.109777935349
1.15 -0.0521853857109 -0.0977388384954 0.961939172671 -0.249793580882 0.961939172671 -0.249793580882 -0.00196234211332 -0.110780613131
1.16 -0.0530729259028 -0.0984023352341 0.961271172578 -0.251908669416 0.961271172578 -0.251908669416 -0.00200812609202 -0.111784267556
1.17 -0.0539673051888 -0.0990610352535 0.960597295696 -0.254022197391 0.960597295696 -0.254022197391 -0.00205470050705 -0.112788904333
1.18 -0.0548685011642 -0.0997148993531 0.959917540532 -0.256134148067 0.959917540532 -0.256134148067 -0.00210207521505 -0.113794529099
1.19 -0.0557764912114 -0.1003638884 0.959231905622 -0.258244504627 0.959231905622 -0.258244504627 -0.0021502601422 -0.114801147416
1.2 -0.0566912524991 -0.101007963331 0.958540389528 -0.260353250178 0.958540389528 -0.260353250178 -0.00219926528381 -0.115808764774
1.21 -0.0576127619827 -0.101647085152 0.957842990838 -0.262460367748 0.957842990838 -0.262460367748 -0.00224910070388 -0.116817386588
1.22 -0.0585409964033 -0.10228121494 0.957139708173 -0.26456584029 0.957139708173 -0.26456584029 -0.00229977653467 -0.117827018198
1.23 -0.0594759322876 -0.102910313844 0.956430540181 -0.266669650676 0.956430540181 -0.266669650676 -0.00235130297624 -0.118837664868
1.24 -0.0604175459476 -0.103534343087 0.955715485541 -0.268771781702 0.955715485541 -0.268771781702 -0.00240369029605 -0.119849331787
1.25 -0.0613658134801 -0.104153263965 0.954994542966 -0.270872216085 0.954994542966 -0.270872216085 -0.00245694882843 -0.120862024065
1.26 -0.0623207107665 -0.104767037851 0.954267711199 -0.272970936462 0.954267711199 -0.272970936462 -0.00251108897421 -0.121875746737
1.27 -0.0632822134723 -0.105375626194 0.953534989018 -0.275067925394 0.953534989018 -0.275067925394 -0.00256612120018 -0.122890504758
1.28 -0.064250297047 -0.105978990522 0.952796375238 -0.277163165359 0.952796375238 -0.277163165359 -0.00262205603867 -0.123906303006
1.29 -0.0652249367235 -0.106577092439 0.952051868706 -0.279256638758 0.952051868706 -0.279256638758 -0.00267890408705 -0.124923146279
1.3 -0.066206107518 -0.107169893633 0.951301468309 -0.281348327912 0.951301468309 -0.281348327912 -0.00273667600727 -0.125941039294
1.31 -0.0671937842296 -0.107757355871 0.950545172971 -0.283438215062 0.950545172971 -0.283438215062 -0.00279538252535 -0.126959986689
1.32 -0.0681879414399 -0.108339441004 0.949782981655 -0.285526282369 0.949782981655 -0.285526282369 -0.00285503443092 -0.12797999302
1.33 -0.0691885535129 -0.108916110966 0.949014893364 -0.287612511913 0.949014893364 -0.287612511913 -0.00291564257671 -0.129001062761
1.34 -0.0701955945946 -0.109487327777 0.94824090714 -0.289696885695 0.94824090714 -0.289696885695 -0.00297721787802 -0.130023200307
1.35 -0.0712090386126 -0.110053053542 0.947461022071 -0.291779385635 0.947461022071 -0.291779385635 -0.00303977131226 -0.131046409964
1.36 -0.0722288592758 -0.110613250456 0.946675237285 -0.293859993571 0.946675237285 -0.293859993571 -0.00310331391842 -0.13207069596
1.37 -0.0732550300745 -0.111167880801 0.945883551956 -0.295938691262 0.945883551956 -0.295938691262 -0.00316785679654 -0.133096062437
1.38 -0.0742875242796 -0.111716906949 0.945085965302 -0.298015460384 0.945085965302 -0.298015460384 -0.00323341110719 -0.134122513451
1.39 -0.0753263149427 -0.112260291365 0.944282476587 -0.300090282534 0.944282476587 -0.300090282534 -0.00329998807095 -0.135150052974
1.4 -0.0763713748957 -0.112797996606 0.943473085123 -0.302163139225 0.943473085123 -0.302163139225 -0.00336759896786 -0.136178684893
1.41 -0.0774226767506 -0.113329985324 0.942657790271 -0.304234011892 0.942657790271 -0.304234011892 -0.00343625513692 -0.137208413005
1.42 -0.0784801928991 -0.113856220265 0.941836591441 -0.306302881885 0.941836591441 -0.306302881885 -0.00350596797546 -0.138239241025
1.43 -0.0795438955127 -0.114376664274 0.941009488094 -0.308369730476 0.941009488094 -0.308369730476 -0.00357674893868 -0.139271172576
1.44 -0.0806137565421 -0.114891280291 0.94017647974 -0.310434538853 0.94017647974 -0.310434538853 -0.00364860953905 -0.140304211195
1.45 -0.0816897477172 -0.115400031358 0.939337565946 -0.312497288122 0.939337565946 -0.312497288122 -0.00372156134571 -0.14133836033
1.46 -0.0827718405467 -0.115902880618 0.938492746329 -0.314557959309 0.938492746329 -0.314557959309 -0.00379561598398 -0.142373623338
