! Created Mon Mar  2 11:11:27 2026
# hz S ma R 100
! 2 Port Network Data from SP1.SP block
! freq  magS11  angS11  magS21  angS21  magS12  angS12  magS22  angS22  
!     
10000000       0.196642913        -3.57554737        0.801670467        -8.25181542        0.801670467        -8.25181542        0.196776523        -12.9826165
20000000        0.19620722        -7.25485284        0.800507534          -16.47303        0.800507534          -16.47303        0.196634989        -26.0494543
30000000       0.195051041        -10.9517141        0.799089392         -24.678064        0.799089392         -24.678064        0.196028179        -39.1238748
40000000       0.193136921        -14.6456539        0.797396945        -32.8611116        0.797396945        -32.8611116        0.195015374        -52.2052331
50000000       0.190419332        -18.3078916        0.795435559        -41.0152745        0.795435559        -41.0152745        0.193667452        -65.2903034
60000000       0.186701416        -21.8990265         0.79305205        -49.1347927         0.79305205        -49.1347927        0.191876982        -78.3601926
70000000       0.182147026         -25.358485        0.790394371        -57.2173079        0.790394371        -57.2173079        0.189773888        -91.3955515
80000000       0.176900101        -28.6242744          0.7875417        -65.2616598          0.7875417        -65.2616598        0.187359387        -104.378763
90000000       0.171123399        -31.6291869        0.784558028        -73.2687869        0.784558028        -73.2687869        0.184582266        -117.301782
100000000       0.165027415        -34.3123573        0.781511709        -81.2407384        0.781511709        -81.2407384         0.18137892        -130.169417
110000000       0.158849693         -36.620283        0.778461601        -89.1807964        0.778461601        -89.1807964        0.177696673        -143.000472
120000000       0.152846497        -38.5221369        0.775478119        -97.0923161        0.775478119        -97.0923161        0.173494716         -155.82943
130000000       0.147271512        -40.0077453        0.772613786        -104.979634        0.772613786        -104.979634        0.168768283         -168.70289
140000000       0.142358966        -41.0975941        0.769908874        -112.847446        0.769908874        -112.847446        0.163550602           178.3217
150000000       0.138302165        -41.8481221        0.767389837        -120.700612        0.767389837        -120.700612        0.157915927         165.177925
160000000       0.135232912        -42.3509599        0.765069066        -128.543976        0.765069066        -128.543976         0.15198383         151.792944
170000000       0.133199275        -42.7230481        0.762954358        -136.382032        0.762954358        -136.382032        0.145911214         138.089006
180000000        0.13218344        -43.0996871        0.761016735        -144.219053        0.761016735        -144.219053        0.139916971         123.999084
190000000       0.132066282        -43.6034248        0.759244193        -152.058285        0.759244193        -152.058285         0.13423867          109.46339
200000000       0.132674613        -44.3301768        0.757638818          -159.9001        0.757638818          -159.9001        0.129169742         94.4583488
210000000       0.133787815        -45.3508992        0.756188412        -167.745121        0.756188412        -167.745121        0.124940551         79.0098175
220000000       0.135139852        -46.7040234        0.754914854        -175.595188        0.754914854        -175.595188        0.121664848         63.2460616
230000000       0.136443377        -48.3617012        0.753796391          176.53415        0.753796391          176.53415         0.11972491         47.5079928
240000000       0.137609995        -50.2827715        0.752455787         168.648259        0.752455787         168.648259        0.119743256         31.7129175
250000000       0.138429141        -52.4735094         0.75102752          160.76642         0.75102752          160.76642        0.121031519         15.9470937
260000000       0.138693544        -54.8700406        0.749572328         152.883207        0.749572328         152.883207        0.123381701        0.535251679
270000000       0.138287166         -57.400744        0.748054332          144.99781        0.748054332          144.99781        0.126628308        -14.3630868
280000000       0.137142761        -59.9936517        0.746448544         137.111944        0.746448544         137.111944        0.130512925         -28.672971
290000000       0.135237605        -62.5747377        0.744744162         129.227931        0.744744162         129.227931        0.134743486        -42.3757205
300000000       0.132592967        -65.0677573        0.742941799          121.34818        0.742941799          121.34818        0.139032526        -55.4923354
310000000       0.129273126        -67.3942054        0.741050904         113.474916        0.741050904         113.474916        0.143118518        -68.0683982
320000000       0.125383875        -69.4738477        0.739087926         105.610023        0.739087926         105.610023        0.146776369        -80.1620304
330000000       0.121070801        -71.2264076        0.737075018         97.7549853        0.737075018         97.7549853        0.149821269        -91.8357964
340000000       0.116516028        -72.5754501        0.735038795          89.910815        0.735038795          89.910815        0.152108584        -103.151897
350000000       0.111933083        -73.4526786        0.733004263         82.0779157        0.733004263         82.0779157        0.153532415        -114.170866
360000000       0.107558283        -73.8113078        0.730999038         74.2562709        0.730999038         74.2562709        0.154021356        -124.949777
370000000       0.103637094        -73.6378763        0.729047948          66.445416        0.729047948          66.445416        0.153535909        -135.543438
380000000       0.100403091        -72.9679176        0.727172794         58.6444668        0.727172794         58.6444668        0.152064834        -146.005342
390000000      0.0980522851         -71.897234        0.725393491         50.8524265        0.725393491         50.8524265        0.149620621        -156.388552
400000000      0.0967106609        -70.5798442        0.723726227         43.0681465        0.723726227         43.0681465        0.146235471        -166.746654
410000000      0.0964078712        -69.2098149        0.722192213         35.2905774        0.722192213         35.2905774        0.141955505         -177.13209
420000000      0.0970573894        -67.9809744        0.720824813           27.51806        0.720824813           27.51806         0.13684227         172.410492
430000000      0.0984698365        -67.0344003        0.719677456         19.7458597        0.719677456         19.7458597        0.131012186         161.860647
440000000       0.100446494        -66.4161389        0.718742012         11.9615438        0.718742012         11.9615438        0.124775056         151.201668
450000000       0.102911707        -66.1580887        0.717806832         4.15864146        0.717806832         4.15864146        0.118527692         140.268747
460000000       0.105691013        -66.3509436        0.716756853        -3.64834991        0.716756853        -3.64834991        0.112281946         128.829673
470000000       0.108458274        -66.9892761        0.715690926        -11.4520672        0.715690926        -11.4520672        0.106019323         116.806887
480000000       0.110960388        -67.9859244          0.7146689        -19.2553316          0.7146689        -19.2553316       0.0999584672         104.160674
490000000       0.113034823        -69.2417276        0.713690416        -27.0611551        0.713690416        -27.0611551       0.0943986189         90.8400863
500000000       0.114575874        -70.6618991        0.712734763        -34.8710408        0.712734763        -34.8710408       0.0896474577         76.8260288
510000000       0.115509068        -72.1455571        0.711773536        -42.6864395        0.711773536        -42.6864395       0.0859951943         62.1651238
520000000        0.11583779        -73.6125008        0.710795701        -50.5062548        0.710795701        -50.5062548       0.0836850276         47.0250305
530000000       0.115593973        -74.9771958        0.709786644        -58.3296946        0.709786644        -58.3296946       0.0828678874         31.6736832
540000000       0.114856799        -76.1601191        0.708732429        -66.1561425        0.708732429        -66.1561425       0.0835705341         16.4382714
550000000       0.113749409        -77.0891295        0.707626055         -73.984344        0.707626055         -73.984344        0.085688838         1.63114793
560000000       0.112433336        -77.7052303        0.706459623        -81.8132964        0.706459623        -81.8132964        0.089013942        -12.5212526
570000000       0.111104506        -77.9699301        0.705229925        -89.6418101        0.705229925        -89.6418101       0.0932764191        -25.9031162
580000000       0.109978955        -77.8734647        0.703936329        -97.4686628        0.703936329        -97.4686628       0.0981880672        -38.4989043
590000000       0.109276807        -77.4440309        0.702581604        -105.292511        0.702581604        -105.292511        0.103463493        -50.3571985
600000000        0.10919816        -76.7529099        0.701175478        -113.111503        0.701175478        -113.111503        0.108795326        -61.5086771
610000000        0.10989731        -75.9085645        0.699729397        -120.927424        0.699729397        -120.927424        0.114515285        -72.1210726
620000000       0.111463244        -75.0497055        0.698227712        -128.735103        0.698227712        -128.735103        0.119683622        -82.3902768
630000000       0.113895083        -74.3169551         0.69671732        -136.534259         0.69671732        -136.534259        0.124432626        -92.2471779
640000000       0.117104101        -73.8293674        0.695229882         -144.32357        0.695229882         -144.32357        0.128644887        -101.791841
650000000       0.120927523        -73.6586861        0.693832225        -152.103344        0.693832225        -152.103344        0.132226743        -111.069221
660000000       0.125199587        -73.8115546         0.69260263        -159.880653         0.69260263        -159.880653        0.135215787        -120.106642
670000000       0.129875201        -74.2777996        0.691481974        -167.669669        0.691481974        -167.669669        0.137792149        -129.005828
680000000       0.134893839        -75.1191546        0.690246637        -175.469473        0.690246637        -175.469473        0.139895796        -137.958795
690000000       0.139956597        -76.3678939         0.68885992          176.73654         0.68885992          176.73654        0.141197357        -147.043614
700000000       0.144757644         -77.961073        0.687442665         168.954748        0.687442665         168.954748        0.141549124        -156.245492
710000000       0.149109029        -79.8155064        0.686075646         161.182718        0.686075646         161.182718        0.140969731        -165.573061
720000000       0.152897617        -81.8587187        0.684783834         153.417033        0.684783834         153.417033        0.139518489        -175.068545
730000000       0.156041709        -84.0281781        0.683577175         145.654981        0.683577175         145.654981        0.137253167         175.215517
740000000       0.158497514        -86.2677952        0.682449105         137.894526        0.682449105         137.894526        0.134247792          165.21471
750000000       0.160250829        -88.5282013        0.681387626         130.134651        0.681387626         130.134651         0.13058653          154.86095
760000000       0.161312388        -90.7678632        0.680377829         122.376287        0.680377829         122.376287        0.126364621         144.090753
770000000       0.161660525        -92.9629066        0.679450836         114.628365        0.679450836         114.628365        0.121688236         132.909271
780000000       0.161201672        -94.9393183         0.67908166         106.860146         0.67908166         106.860146        0.117651035          121.26411
790000000       0.160687331        -96.7685942        0.678232836         99.0625045        0.678232836         99.0625045        0.113410995         108.571331
800000000       0.159778656         -98.467965         0.67737798         91.2759436         0.67737798         91.2759436        0.109382964         95.2685854
810000000       0.158648396        -99.9818497         0.67654302         83.4867563         0.67654302         83.4867563        0.106082274         81.2939578
820000000       0.157467663        -101.303964        0.675693982         75.6928956        0.675693982         75.6928956        0.103830558         66.7055427
830000000       0.156392422        -102.446156        0.674806371         67.8950768        0.674806371         67.8950768        0.102896619         51.6655256
840000000       0.155562369        -103.437166        0.673856345         60.0940113        0.673856345         60.0940113        0.103450699         36.4193027
850000000        0.15508737        -104.322346        0.672826235         52.2918289        0.672826235         52.2918289        0.105532285         21.2532032
860000000       0.155031699        -105.160832        0.671705578         44.4917272        0.671705578         44.4917272         0.10902184         6.43663926
870000000       0.155393202         -106.01916        0.670504147         36.6986134        0.670504147         36.6986134        0.113694566        -7.81687483
880000000       0.156078083        -106.952978        0.669297192         28.9183545        0.669297192         28.9183545        0.119272845        -21.3553133
890000000       0.156945613         -107.96534        0.668269453          21.147944        0.668269453          21.147944        0.125633905        -34.1117294
900000000       0.158079462        -109.019736        0.667462678         13.3602794        0.667462678         13.3602794        0.132803961        -46.2430839
910000000       0.159680147        -110.213152        0.666487177          5.5457299        0.666487177          5.5457299        0.140268601        -58.0127089
920000000       0.161509495        -111.670974        0.665188346        -2.26802689        0.665188346        -2.26802689        0.147331457        -69.4274024
930000000       0.163232031        -113.399663         0.66371712        -10.0665718         0.66371712        -10.0665718        0.153718721        -80.4529968
940000000       0.164639011        -115.366154        0.662190572        -17.8496133        0.662190572        -17.8496133        0.159315505        -91.1280044
950000000       0.165590069        -117.536754        0.660663529        -25.6194261        0.660663529        -25.6194261        0.164012073        -101.516076
960000000       0.165979174        -119.878741        0.659158377        -33.3779783        0.659158377        -33.3779783        0.167693627        -111.678243
970000000       0.165736141         -122.36226        0.657668756        -41.1254029        0.657668756        -41.1254029        0.170246405        -121.655724
980000000       0.164796558        -124.983483        0.656220061        -48.8499279        0.656220061        -48.8499279        0.171743605        -131.417439
990000000       0.162894392        -127.666649        0.655223409        -56.5729437        0.655223409        -56.5729437        0.172656632        -141.243108
1e+09       0.160312551        -130.341555        0.654152916        -64.3088854        0.654152916        -64.3088854        0.171958685        -151.119497
1.01e+09       0.156999697        -133.019096        0.653140631        -72.0384932        0.653140631        -72.0384932        0.170085315         -160.98921
1.02e+09       0.152974157        -135.656081        0.652231812        -79.7664603        0.652231812        -79.7664603        0.167138597        -170.931364
1.03e+09       0.148299596        -138.212158        0.651424708        -87.4956208        0.651424708        -87.4956208        0.163193943         178.995944
1.04e+09       0.143061153        -140.649273        0.650710289        -95.2280948        0.650710289        -95.2280948         0.15835525         168.734561
1.05e+09       0.137363522        -142.929982        0.650074554        -102.965571        0.650074554        -102.965571        0.152757255         158.223185
1.06e+09       0.131325402        -145.019876         0.64949982        -110.709419         0.64949982        -110.709419        0.146565784         147.394272
1.07e+09       0.125078644        -146.889147        0.648962372         -118.46064        0.648962372         -118.46064        0.139974454         136.175693
1.08e+09       0.118756443        -148.518992        0.648432327        -126.219417        0.648432327        -126.219417        0.133207699         124.494725
1.09e+09        0.11247931        -149.905812        0.647877222         -133.98455        0.647877222         -133.98455        0.126519676         112.287984
1.1e+09       0.106328933        -151.067669        0.647267031        -141.752628        0.647267031        -141.752628        0.120191932         99.5168439
1.11e+09       0.100305083        -152.033242        0.646604524        -149.516367        0.646604524        -149.516367        0.114538222          86.198981
1.12e+09      0.0943100866         -152.76739        0.646017299        -157.267364        0.646017299        -157.267364        0.109958441         72.4293757
1.13e+09      0.0884431295        -153.061946        0.645766425        -165.018431        0.645766425        -165.018431        0.106958763         58.2974262
1.14e+09      0.0832822595        -152.888323        0.645739522        -172.807419        0.645739522        -172.807419        0.105732376          43.803863
1.15e+09      0.0789673837        -152.677334        0.645484748         179.367534        0.645484748         179.367534          0.1060121         29.1503154
1.16e+09      0.0750717445        -152.707043        0.644910903         171.533331        0.644910903         171.533331        0.107621258         14.7090184
1.17e+09      0.0712683467        -153.021534        0.644119125         163.701385        0.644119125         163.701385        0.110436827        0.761208276
1.18e+09      0.0673678046        -153.624293        0.643176358         155.873273        0.643176358         155.873273        0.114247577        -12.5347968
1.19e+09      0.0632325231        -154.517418        0.642101823         148.048552        0.642101823         148.048552        0.118771746         -25.109553
1.2e+09      0.0587766835        -155.689503        0.640854914         140.226004        0.640854914         140.226004        0.123683722        -36.9417972
1.21e+09        0.05408307        -157.326125        0.639182994         132.424613        0.639182994         132.424613        0.128818104        -47.8996478
1.22e+09      0.0481230533        -160.049223        0.638137783         124.710401        0.638137783         124.710401         0.13533252        -58.4106695
1.23e+09      0.0411821405         -161.89746         0.63754435         116.902416         0.63754435         116.902416        0.140676301        -68.8885589
