! Created Fri Feb 27 17:09:16 2026
# hz S ma R 50
! 4 Port Network Data from SP1.SP block
! freq  magS11  angS11  magS12  angS12  magS13  angS13  magS14  angS14  
!       magS21  angS21  magS22  angS22  magS23  angS23  magS24  angS24  
!       magS31  angS31  magS32  angS32  magS33  angS33  magS34  angS34  
!       magS41  angS41  magS42  angS42  magS43  angS43  magS44  angS44  
!     
10000000       0.211796869        -2.07133479      0.00516895699          63.371935        0.786884843        -8.18359942      0.00195323531         144.159649
                    0.00516895699          63.371935        0.185153461        -2.36662805      0.00201173472         140.419733        0.813506856        -8.17937886
                      0.786884843        -8.18359942      0.00201173472         140.419733        0.211337287        -11.3185826      0.00628753852         63.9828018
                    0.00195323531         144.159649        0.813506856        -8.17937886      0.00628753852         63.9828018        0.184743371        -11.0822584

20000000       0.212205751        -4.28697041      0.00972812381         66.5449463         0.78590886         -16.336241      0.00242511782          114.70263
                    0.00972812381         66.5449463        0.185585168         -4.9071034      0.00261025538         109.881388        0.812465084        -16.3262293
                       0.78590886         -16.336241      0.00261025538         109.881388        0.210314273        -22.7619109        0.012009804         62.3878938
                    0.00242511782          114.70263        0.812465084        -16.3262293        0.012009804         62.3878938         0.18384828        -22.3156236

30000000       0.212349736        -6.59238644       0.0141559348         63.6243445        0.784811759        -24.4752658      0.00303252763         91.6000293
                     0.0141559348         63.6243445        0.185739418        -7.55362229      0.00335567667         86.9129356         0.81129755        -24.4585752
                      0.784811759        -24.4752658      0.00335567667         86.9129356        0.208248664        -34.2902332       0.0175072456         55.6818767
                    0.00303252763         91.6000293         0.81129755        -24.4585752       0.0175072456         55.6818767        0.181947175        -33.6436403

40000000        0.21209483        -8.98622089       0.0182970833         59.1504724        0.783569911        -32.5978893      0.00367669486         72.4406199
                     0.0182970833         59.1504724        0.185483992        -10.3059399      0.00413122152         68.0960813         0.80998367         -32.573557
                      0.783569911        -32.5978893      0.00413122152         68.0960813        0.205248083        -45.9335138       0.0226070478         47.6586123
                    0.00367669486         72.4406199         0.80998367         -32.573557       0.0226070478         47.6586123        0.179141175        -45.0975529

50000000       0.211291946        -11.4533851       0.0220588572         54.1150101        0.782171153        -40.6998752      0.00429995828         55.5600236
                     0.0220588572         54.1150101        0.184669148        -13.1489144      0.00487487597         51.5143637        0.808516367        -40.6669625
                      0.782171153        -40.6998752      0.00487487597         51.5143637        0.201461021        -57.7212226       0.0271939393         39.1052691
                    0.00429995828         55.5600236        0.808516367        -40.6669625       0.0271939393         39.1052691         0.17556888        -56.7095624

60000000       0.209700626        -13.9588767       0.0253905358         48.7453476        0.780504127        -48.7782468      0.00486403289         39.3372474
                     0.0253905358         48.7453476        0.183046833         -16.045582      0.00555049025         35.6023227         0.80677875        -48.7355003
                      0.780504127        -48.7782468      0.00555049025         35.6023227        0.196946914         -69.665106       0.0311506038         30.1895431
                    0.00486403289         39.3372474         0.80677875        -48.7355003       0.0311506038         30.1895431         0.17127343         -68.490558

70000000       0.207279866        -16.4560167       0.0281862898         43.4550761        0.778569317         -56.831187      0.00535142273         24.5266607
                     0.0281862898         43.4550761        0.180579062        -18.9453881      0.00613280738         20.9699133        0.804793637          -56.77904
                      0.778569317         -56.831187      0.00613280738         20.9699133        0.191881392        -81.7739102        0.034431643         21.1858906
                    0.00535142273         24.5266607        0.804793637          -56.77904        0.034431643         21.1858906        0.166430087        -80.4532489

80000000       0.204124352         -18.893743       0.0304226758         38.2478047         0.77645996        -64.8589363      0.00574394527         10.2603145
                     0.0304226758         38.2478047        0.177355632        -21.7911778      0.00660594488          6.8350205        0.802646401        -64.7969319
                       0.77645996        -64.8589363      0.00660594488          6.8350205        0.186463161        -94.0572206       0.0369716537         12.0566932
                    0.00574394527         10.2603145        0.802646401        -64.7969319       0.0369716537         12.0566932        0.161222206        -92.6066797

90000000       0.200310844        -21.2164448       0.0320724112         33.2116792        0.774204779        -72.8623766      0.00603189418        -3.63911692
                     0.0320724112         33.2116792        0.173442852        -24.5197833      0.00695976589         -6.9633045         0.80036727        -72.7910957
                      0.774204779        -72.8623766      0.00695976589         -6.9633045        0.180805884        -106.519503       0.0387375836         2.81063756
                    0.00603189418        -3.63911692         0.80036727        -72.7910957       0.0387375836         2.81063756        0.155753328        -104.958296

100000000       0.195968297        -23.3745257       0.0331267641         28.4290937        0.771838695        -80.8431317      0.00621051474        -17.2875388
                     0.0331267641         28.4290937        0.168960932        -27.0731762      0.00718937084        -20.5281745        0.797989867        -80.7635517
                      0.771838695        -80.8431317      0.00718937084        -20.5281745        0.175007408        -119.167703       0.0397174646        -6.56553149
                    0.00621051474        -17.2875388        0.797989867        -80.7635517       0.0397174646        -6.56553149        0.150112252        -117.518475

110000000        0.19125973        -25.3235797       0.0335960122          23.986199        0.769390305        -88.8035318      0.00627891084        -30.7572557
                     0.0335960122          23.986199        0.164063894        -29.3969553       0.0072938484        -33.9224068        0.795538985        -88.7168101
                      0.769390305        -88.8035318       0.0072938484        -33.9224068        0.169161981        -132.012367        0.039919572         -16.103978
                    0.00627891084        -30.7572557        0.795538985        -88.7168101        0.039919572         -16.103978        0.144386245        -130.302995

120000000       0.186369972        -27.0335637       0.0335126322         19.9847299        0.766907946           -96.7455      0.00624131969        -44.1291058
                     0.0335126322         19.9847299         0.15892969        -31.4510135      0.00727794294        -47.2139136        0.793059456        -96.6529307
                      0.766907946           -96.7455      0.00727794294        -47.2139136        0.163353307        -145.068593       0.0393720805        -25.8575548
                    0.00624131969        -44.1291058        0.793059456        -96.6529307       0.0393720805        -25.8575548        0.138652378        -143.334586

130000000       0.181494356        -28.4845361       0.0329309512          16.543889        0.764427378         -104.67155        0.006104887        -57.4697443
                     0.0329309512          16.543889        0.153749256        -33.2039928      0.00714941215        -60.4563697        0.790583563        -104.574591
                      0.764427378         -104.67155      0.00714941215        -60.4563697          0.1576747        -158.353363       0.0381209543        -35.9068518
                      0.006104887        -57.4697443        0.790583563        -104.574591       0.0381209543        -35.9068518        0.133001268        -156.640631

140000000       0.176825604        -29.6712073       0.0319297185          13.808827        0.761979534        -112.584365      0.00588010989         -70.853334
                     0.0319297185          13.808827        0.148715417          -34.63929      0.00691956333        -73.7070774        0.788139336        -112.484531
                      0.761979534        -112.584365      0.00691956333        -73.7070774        0.152226413        -171.883384       0.0362299348        -46.3692112
                    0.00588010989         -70.853334        0.788139336        -112.484531       0.0362299348        -46.3692112        0.127534788        -170.250465

150000000       0.172540491        -30.6051924       0.0306155175         11.9538928        0.759589928         -120.48677      0.00558058614        -84.3688781
                     0.0306155175         11.9538928        0.144010464        -35.7589581      0.00660292512        -87.0320968        0.785748164          -120.3855
                      0.759589928         -120.48677      0.00660292512        -87.0320968        0.147115554         174.328174       0.0337817294        -57.4162752
                    0.00558058614        -84.3688781        0.785748164          -120.3855       0.0337817294        -57.4162752        0.122366419         175.809052

160000000       0.168787851        -31.3157257        0.029127016         11.1760227        0.757277557          -128.3817      0.00522290561        -98.1366315
                      0.029127016         11.1760227        0.139794045        -36.5863194      0.00621707385        -100.518997        0.783425698        -128.280308
                      0.757277557          -128.3817      0.00621707385        -100.518997        0.142455511         160.276003       0.0308829595        -69.3029913
                    0.00522290561        -98.1366315        0.783425698        -128.280308       0.0308829595        -69.3029913         0.11762209          161.51961

170000000       0.165672708        -31.8468956       0.0276386398         11.6658905        0.755063627        -136.271934       0.0048271882        -112.309253
                     0.0276386398         11.6658905        0.136185285        -37.1648636      0.00578293725        -114.274991        0.781190158        -136.171585
                      0.755063627        -136.271934      0.00578293725        -114.274991        0.138353403         145.965464       0.0276737057        -82.4145627
                     0.0048271882        -112.309253        0.781190158        -136.171585       0.0276737057        -82.4145627        0.113426247         146.876847

180000000       0.163267648        -32.2624545       0.0263578887         13.5371436        0.752937258        -144.160488      0.00441625649        -127.079859
                     0.0263578887         13.5371436        0.133276034        -37.5660445      0.00532365067        -128.433836        0.779028436        -144.062014
                      0.752937258        -144.160488      0.00532365067        -128.433836        0.134931522         131.424099        0.024344592        -97.3283517
                    0.00441625649        -127.079859        0.779028436        -144.062014        0.024344592        -97.3283517        0.109926525         131.907631

190000000       0.161576051        -32.6277016       0.0255101265         16.7117677        0.750909851        -152.049816      0.00401710902        -142.691685
                     0.0255101265         16.7117677        0.131084965        -37.8686089      0.00486582698        -143.167374         0.77694824        -151.953942
                      0.750909851        -152.049816      0.00486582698        -143.167374        0.132280226         116.694203        0.021172853        -114.861119
                    0.00401710902        -142.691685         0.77694824        -151.953942        0.021172853        -114.861119        0.107236435         116.663852

200000000        0.16056235        -33.0064462       0.0252982001          20.803076        0.749003445        -159.940471      0.00366034027        -159.401092
                     0.0252982001          20.803076        0.129588961        -38.1536177      0.00443846436        -158.671072        0.774973865        -159.847486
                      0.749003445        -159.940471      0.00443846436        -158.671072        0.130503705         101.844918       0.0185656604        -135.910194
                    0.00366034027        -159.401092        0.774973865        -159.847486       0.0185656604        -135.910194        0.105482462         101.239788

210000000       0.160139352        -33.4607117       0.0258455008         25.1357222        0.747217847        -167.834063      0.00338184458        -177.340294
                     0.0258455008         25.1357222        0.128709449        -38.5040635      0.00407485803        -175.092318        0.773103422        -167.743991
                      0.747217847        -167.834063      0.00407485803        -175.092318        0.129638167         86.9635054       0.0170504905        -160.650031
                    0.00338184458        -177.340294        0.773103422        -167.743991       0.0170504905        -160.650031        0.104714766         85.7614782

220000000       0.160176864        -34.0406282        0.027156016         28.9636542        0.745536589        -175.732697      0.00321895034         163.694593
                      0.027156016         28.9636542        0.128319416        -38.9901559      0.00381041446         167.586226        0.771320654        -175.645213
                      0.745536589        -175.732697      0.00381041446         167.586226        0.129662828         72.1414788       0.0170782388         172.803776
                    0.00321895034         163.694593        0.771320654        -175.645213       0.0170782388         172.803776        0.104916552         70.3654273

230000000       0.160518979        -34.7782637       0.0291211179         31.7467778        0.743940227         176.361912      0.00320309338         144.410207
                     0.0291211179         31.7467778        0.128261322        -39.6593745      0.00367875928         149.689334        0.769607688         176.447455
                      0.743940227         176.361912      0.00367875928         149.689334        0.130514609         57.4656056       0.0186769239         147.820823
                    0.00320309338         144.410207        0.769607688         176.447455       0.0186769239         147.820823        0.106017217         55.1806628

240000000       0.160999186        -35.6864914       0.0315655379         33.2693326        0.742407901         168.448381      0.00335106528         125.869075
                     0.0315655379         33.2693326        0.128363915         -40.533842      0.00370536879         131.900957        0.767945206         168.532927
                      0.742407901         168.448381      0.00370536879         131.900957        0.132096358          43.009299       0.0214325611         126.387585
                    0.00335106528         125.869075        0.767945206         168.532927       0.0214325611         126.387585        0.107902072         40.3129357

250000000       0.161454986        -36.7600373       0.0342972414         33.5736645        0.740917796         160.525714      0.00366389567         108.968269
                     0.0342972414         33.5736645        0.128458587        -41.6112234      0.00390307104         115.033264        0.766313982         160.610451
                      0.740917796         160.525714      0.00390307104         115.033264        0.134284684         28.8270374       0.0248260773         108.393385
                    0.00366389567         108.968269        0.766313982         160.610451       0.0248260773         108.393385        0.110425354         25.8353199

260000000       0.161740548        -37.9782469       0.0371389778         32.8340803        0.739448131         152.593274      0.00413566131         94.0749584
                     0.0371389778         32.8340803        0.128393362        -42.8683612      0.00427498466         99.6777004        0.764695639         152.679576
                      0.739448131         152.593274      0.00427498466         99.6777004        0.136941151         14.9524426       0.0284464613         92.9486194
                    0.00413566131         94.0749584        0.764695639         152.679576       0.0284464613         92.9486194        0.113425851         11.7866572

270000000       0.161735312        -39.3083122        0.039940314         31.2629657        0.737978445         144.650771      0.00476235637         81.0513357
                      0.039940314         31.2629657        0.128042085        -44.2656765      0.00482057183         85.9941966        0.763073511         144.740127
                      0.737978445         144.650771      0.00482057183         85.9941966        0.139922514         1.39977936       0.0320068091         79.2263585
                    0.00476235637         81.0513357        0.763073511         144.740127       0.0320068091         79.2263585        0.116740393        -1.82380509

280000000       0.161351166        -40.7082895       0.0425808403         29.0623024        0.736490342         136.698201        0.005546816         69.5054235
                     0.0425808403         29.0623024        0.127311768        -45.7511358      0.00554251816         73.7896588        0.761433195         136.792136
                      0.736490342         136.698201      0.00554251816         73.7896588        0.143089103        -11.8325294       0.0353074853         66.6343314
                      0.005546816         69.5054235        0.761433195         136.792136       0.0353074853         66.6343314        0.120214026        -15.0088921

290000000       0.160537012        -42.1299485       0.0449687867          26.408213        0.734968063         128.735784      0.00649774574         59.0003573
                     0.0449687867          26.408213         0.12614708         -47.263748      0.00644824923         62.7090689        0.759763017         128.835775
                      0.734968063         128.735784      0.00644824923         62.7090689        0.146310819        -24.7577242        0.038205755         54.7726593
                    0.00649774574         59.0003573        0.759763017         128.835775        0.038205755         54.7726593        0.123706431        -27.7957912

300000000       0.159281505        -43.5212157       0.0470393717          23.449178        0.733399066         120.763918      0.00762664572         49.1589468
                     0.0470393717          23.449178        0.124533016         -48.736273      0.00754810963         52.3868022        0.758054427         120.871311
