! Generated by SPUtility circuit solver
# GHZ S RI R 50
0.01 0.999940787166 -0.00628265204238 5.92128342668e-05 0.00628265204228 5.92128342668e-05 0.00628265204228 0.999940787166 -0.00628265204228
0.02 0.99976320615 -0.0125621055283 0.000236793849947 0.0125621055283 0.000236793849947 0.0125621055283 0.99976320615 -0.0125621055283
0.03 0.999467429275 -0.0188351670635 0.000532570724826 0.0188351670634 0.000532570724826 0.0188351670634 0.999467429275 -0.0188351670634
0.04 0.999053743282 -0.025098653559 0.000946256718382 0.0250986535591 0.000946256718382 0.0250986535591 0.999053743282 -0.0250986535591
0.05 0.998522548636 -0.0313493973421 0.00147745136437 0.0313493973421 0.00147745136437 0.0313493973421 0.998522548636 -0.0313493973421
0.06 0.997874358564 -0.0375842512121 0.00212564143603 0.0375842512121 0.00212564143603 0.0375842512121 0.997874358564 -0.0375842512121
0.07 0.99710979782 -0.0438000934297 0.00289020217963 0.0438000934297 0.00289020217963 0.0438000934297 0.99710979782 -0.0438000934297
0.08 0.996229601189 -0.0499938326199 0.00377039881083 0.0499938326199 0.00377039881083 0.0499938326199 0.996229601189 -0.0499938326199
0.09 0.995234611733 -0.0561624125735 0.00476538826712 0.0561624125735 0.00476538826712 0.0561624125735 0.995234611733 -0.0561624125735
0.1 0.994125778791 -0.0623028169322 0.00587422120874 0.0623028169322 0.00587422120874 0.0623028169322 0.994125778791 -0.0623028169322
0.11 0.992904155741 -0.0684120737416 0.00709584425906 0.0684120737416 0.00709584425906 0.0684120737416 0.992904155741 -0.0684120737416
0.12 0.991570897525 -0.0744872598592 0.00842910247478 0.0744872598591 0.00842910247478 0.0744872598591 0.991570897525 -0.0744872598591
0.13 0.990127257965 -0.0805255052032 0.00987274203528 0.0805255052032 0.00987274203528 0.0805255052032 0.990127257965 -0.0805255052032
0.14 0.988574586861 -0.0865239968306 0.0114254131394 0.0865239968306 0.0114254131394 0.0865239968306 0.988574586861 -0.0865239968306
0.15 0.986914326902 -0.0924799828326 0.0130856730977 0.0924799828326 0.0130856730977 0.0924799828326 0.986914326902 -0.0924799828326
0.16 0.985148010393 -0.0983907760367 0.0148519896066 0.0983907760367 0.0148519896066 0.0983907760367 0.985148010393 -0.0983907760367
0.17 0.983277255808 -0.104253757507 0.0167227441915 0.104253757507 0.0167227441915 0.104253757507 0.983277255808 -0.104253757507
0.18 0.981303764195 -0.110066379835 0.0186962358049 0.110066379835 0.0186962358049 0.110066379835 0.981303764195 -0.110066379835
0.19 0.979229315436 -0.115826170209 0.0207706845637 0.115826170209 0.0207706845637 0.115826170209 0.979229315436 -0.115826170209
0.2 0.977055764387 -0.121530733263 0.0229442356128 0.121530733263 0.0229442356128 0.121530733263 0.977055764387 -0.121530733263
0.21 0.974785036902 -0.127177753695 0.0252149630984 0.127177753695 0.0252149630984 0.127177753695 0.974785036902 -0.127177753695
0.22 0.972419125763 -0.132764998653 0.0275808742367 0.132764998653 0.0275808742367 0.132764998653 0.972419125763 -0.132764998653
0.23 0.969960086538 -0.138290319886 0.0300399134624 0.138290319886 0.0300399134624 0.138290319886 0.969960086538 -0.138290319886
0.24 0.967410033358 -0.143751655651 0.032589966642 0.143751655651 0.032589966642 0.143751655651 0.967410033358 -0.143751655651
0.25 0.964771134664 -0.149147032391 0.035228865336 0.149147032391 0.035228865336 0.149147032391 0.964771134664 -0.149147032391
0.26 0.962045608903 -0.154474566173 0.0379543910967 0.154474566173 0.0379543910967 0.154474566173 0.962045608903 -0.154474566173
0.27 0.959235720215 -0.15973246388 0.0407642797854 0.15973246388 0.0407642797854 0.15973246388 0.959235720215 -0.15973246388
0.28 0.956343774104 -0.164919024183 0.0436562258956 0.164919024183 0.0436562258956 0.164919024183 0.956343774104 -0.164919024183
0.29 0.953372113132 -0.170032638273 0.046627886868 0.170032638273 0.046627886868 0.170032638273 0.953372113132 -0.170032638273
0.3 0.950323112616 -0.175071790367 0.0496768873835 0.175071790367 0.0496768873835 0.175071790367 0.950323112616 -0.175071790367
0.31 0.947199176377 -0.180035057993 0.0528008236229 0.180035057993 0.0528008236229 0.180035057993 0.947199176377 -0.180035057993
0.32 0.944002732522 -0.184921112065 0.0559972674784 0.184921112065 0.0559972674784 0.184921112065 0.944002732522 -0.184921112065
0.33 0.940736229292 -0.189728716733 0.0592637707077 0.189728716733 0.0592637707077 0.189728716733 0.940736229292 -0.189728716733
0.34 0.937402130982 -0.194456729051 0.0625978690181 0.194456729051 0.0625978690181 0.194456729051 0.937402130982 -0.194456729051
0.35 0.934002913929 -0.199104098428 0.0659970860709 0.199104098428 0.0659970860709 0.199104098428 0.934002913929 -0.199104098428
0.36 0.930541062603 -0.203669865911 0.0694589373965 0.203669865911 0.0694589373965 0.203669865911 0.930541062603 -0.203669865911
0.37 0.927019065789 -0.208153163277 0.0729809342106 0.208153163277 0.0729809342106 0.208153163277 0.927019065789 -0.208153163277
0.38 0.923439412876 -0.212553211962 0.0765605871244 0.212553211962 0.0765605871244 0.212553211962 0.923439412876 -0.212553211962
0.39 0.91980459026 -0.216869321828 0.0801954097405 0.216869321828 0.0801954097405 0.216869321828 0.91980459026 -0.216869321828
0.4 0.916117077872 -0.221100889778 0.0838829221283 0.221100889778 0.0838829221283 0.221100889778 0.916117077872 -0.221100889778
0.41 0.912379345827 -0.225247398234 0.0876206541732 0.225247398234 0.0876206541732 0.225247398234 0.912379345827 -0.225247398234
0.42 0.908593851206 -0.229308413478 0.091406148794 0.229308413478 0.091406148794 0.229308413478 0.908593851206 -0.229308413478
0.43 0.904763034976 -0.233283583882 0.095236965024 0.233283583882 0.095236965024 0.233283583882 0.904763034976 -0.233283583882
0.44 0.900889319047 -0.237172638015 0.0991106809534 0.237172638015 0.0991106809534 0.237172638015 0.900889319047 -0.237172638015
0.45 0.896975103472 -0.240975382658 0.103024896528 0.240975382658 0.103024896528 0.240975382658 0.896975103472 -0.240975382658
0.46 0.893022763796 -0.244691700725 0.106977236204 0.244691700725 0.106977236204 0.244691700725 0.893022763796 -0.244691700725
0.47 0.889034648543 -0.2483215491 0.110965351457 0.2483215491 0.110965351457 0.2483215491 0.889034648543 -0.2483215491
0.48 0.88501307686 -0.251864956409 0.11498692314 0.251864956409 0.11498692314 0.251864956409 0.88501307686 -0.251864956409
0.49 0.8809603363 -0.255322020723 0.1190396637 0.255322020723 0.1190396637 0.255322020723 0.8809603363 -0.255322020723
0.5 0.876878680761 -0.258692907211 0.123121319239 0.258692907211 0.123121319239 0.258692907211 0.876878680761 -0.258692907211
0.51 0.872770328562 -0.261977845751 0.127229671438 0.261977845751 0.127229671438 0.261977845751 0.872770328562 -0.261977845751
0.52 0.868637460674 -0.265177128499 0.131362539326 0.265177128499 0.131362539326 0.265177128499 0.868637460674 -0.265177128499
0.53 0.864482219089 -0.268291107439 0.135517780911 0.268291107439 0.135517780911 0.268291107439 0.864482219089 -0.268291107439
0.54 0.860306705333 -0.271320191907 0.139693294667 0.271320191907 0.139693294667 0.271320191907 0.860306705333 -0.271320191907
0.55 0.856112979115 -0.274264846108 0.143887020885 0.274264846108 0.143887020885 0.274264846108 0.856112979115 -0.274264846108
0.56 0.851903057116 -0.277125586629 0.148096942884 0.277125586629 0.148096942884 0.277125586629 0.851903057116 -0.277125586629
0.57 0.84767891191 -0.279902979947 0.15232108809 0.279902979947 0.15232108809 0.279902979947 0.84767891191 -0.279902979947
0.58 0.843442471011 -0.282597639957 0.156557528989 0.282597639957 0.156557528989 0.282597639957 0.843442471011 -0.282597639957
0.59 0.83919561605 -0.28521022551 0.16080438395 0.28521022551 0.16080438395 0.28521022551 0.83919561605 -0.28521022551
0.6 0.834940182069 -0.28774143797 0.165059817931 0.28774143797 0.165059817931 0.28774143797 0.834940182069 -0.28774143797
0.61 0.830677956936 -0.2901920188 0.169322043064 0.2901920188 0.169322043064 0.2901920188 0.830677956936 -0.2901920188
0.62 0.826410680872 -0.292562747179 0.173589319128 0.292562747179 0.173589319128 0.292562747179 0.826410680872 -0.292562747179
0.63 0.822140046082 -0.294854437654 0.177859953918 0.294854437654 0.177859953918 0.294854437654 0.822140046082 -0.294854437654
0.64 0.817867696497 -0.297067937835 0.182132303503 0.297067937835 0.182132303503 0.297067937835 0.817867696497 -0.297067937835
0.65 0.813595227609 -0.299204126125 0.186404772391 0.299204126125 0.186404772391 0.299204126125 0.813595227609 -0.299204126125
0.66 0.809324186402 -0.301263909511 0.190675813598 0.301263909511 0.190675813598 0.301263909511 0.809324186402 -0.301263909511
0.67 0.805056071374 -0.303248221389 0.194943928626 0.303248221389 0.194943928626 0.303248221389 0.805056071374 -0.303248221389
0.68 0.80079233264 -0.305158019456 0.19920766736 0.305158019456 0.19920766736 0.305158019456 0.80079233264 -0.305158019456
0.69 0.796534372119 -0.306994283647 0.203465627881 0.306994283647 0.203465627881 0.306994283647 0.796534372119 -0.306994283647
0.7 0.792283543791 -0.308758014135 0.207716456209 0.308758014135 0.207716456209 0.308758014135 0.792283543791 -0.308758014135
0.71 0.788041154032 -0.310450229389 0.211958845968 0.310450229389 0.211958845968 0.310450229389 0.788041154032 -0.310450229389
0.72 0.783808462006 -0.31207196429 0.216191537994 0.31207196429 0.216191537994 0.31207196429 0.783808462006 -0.31207196429
0.73 0.779586680123 -0.313624268309 0.220413319877 0.313624268309 0.220413319877 0.313624268309 0.779586680123 -0.313624268309
0.74 0.775376974554 -0.315108203749 0.224623025446 0.315108203749 0.224623025446 0.315108203749 0.775376974554 -0.315108203749
0.75 0.771180465796 -0.316524844053 0.228819534204 0.316524844053 0.228819534204 0.316524844053 0.771180465796 -0.316524844053
0.76 0.766998229287 -0.317875272164 0.233001770713 0.317875272164 0.233001770713 0.317875272164 0.766998229287 -0.317875272164
0.77 0.762831296066 -0.319160578962 0.237168703934 0.319160578962 0.237168703934 0.319160578962 0.762831296066 -0.319160578962
0.78 0.758680653468 -0.320381861759 0.241319346532 0.320381861759 0.241319346532 0.320381861759 0.758680653468 -0.320381861759
0.79 0.75454724586 -0.321540222852 0.24545275414 0.321540222852 0.24545275414 0.321540222852 0.75454724586 -0.321540222852
0.8 0.750431975412 -0.322636768149 0.249568024588 0.322636768149 0.249568024588 0.322636768149 0.750431975412 -0.322636768149
0.81 0.746335702886 -0.323672605852 0.253664297114 0.323672605852 0.253664297114 0.323672605852 0.746335702886 -0.323672605852
0.82 0.742259248462 -0.324648845198 0.257740751538 0.324648845198 0.257740751538 0.324648845198 0.742259248462 -0.324648845198
0.83 0.738203392584 -0.325566595271 0.261796607416 0.325566595271 0.261796607416 0.325566595271 0.738203392584 -0.325566595271
0.84 0.734168876815 -0.326426963862 0.265831123185 0.326426963862 0.265831123185 0.326426963862 0.734168876815 -0.326426963862
0.85 0.730156404725 -0.327231056399 0.269843595275 0.327231056399 0.269843595275 0.327231056399 0.730156404725 -0.327231056399
0.86 0.726166642779 -0.327979974928 0.273833357221 0.327979974928 0.273833357221 0.327979974928 0.726166642779 -0.327979974928
0.87 0.722200221238 -0.328674817149 0.277799778762 0.328674817149 0.277799778762 0.328674817149 0.722200221238 -0.328674817149
0.88 0.718257735076 -0.329316675514 0.281742264924 0.329316675514 0.281742264924 0.329316675514 0.718257735076 -0.329316675514
0.89 0.714339744893 -0.329906636374 0.285660255107 0.329906636374 0.285660255107 0.329906636374 0.714339744893 -0.329906636374
0.9 0.710446777836 -0.330445779179 0.289553222164 0.330445779179 0.289553222164 0.330445779179 0.710446777836 -0.330445779179
0.91 0.706579328524 -0.330935175729 0.293420671476 0.330935175729 0.293420671476 0.330935175729 0.706579328524 -0.330935175729
0.92 0.702737859967 -0.331375889474 0.297262140033 0.331375889474 0.297262140033 0.331375889474 0.702737859967 -0.331375889474
0.93 0.698922804487 -0.331768974867 0.301077195513 0.331768974867 0.301077195513 0.331768974867 0.698922804487 -0.331768974867
0.94 0.695134564632 -0.332115476749 0.304865435368 0.332115476749 0.304865435368 0.332115476749 0.695134564632 -0.332115476749
0.95 0.69137351409 -0.332416429801 0.30862648591 0.332416429801 0.30862648591 0.332416429801 0.69137351409 -0.332416429801
0.96 0.687639998588 -0.332672858014 0.312360001412 0.332672858014 0.312360001412 0.332672858014 0.687639998588 -0.332672858014
0.97 0.683934336787 -0.332885774223 0.316065663213 0.332885774223 0.316065663213 0.332885774223 0.683934336787 -0.332885774223
0.98 0.680256821173 -0.333056179663 0.319743178827 0.333056179663 0.319743178827 0.333056179663 0.680256821173 -0.333056179663
0.99 0.676607718924 -0.333185063577 0.323392281076 0.333185063577 0.323392281076 0.333185063577 0.676607718924 -0.333185063577
1 0.672987272781 -0.333273402853 0.327012727219 0.333273402853 0.327012727219 0.333273402853 0.672987272781 -0.333273402853
1.01 0.669395701891 -0.333322161696 0.330604298109 0.333322161696 0.330604298109 0.333322161696 0.669395701891 -0.333322161696
1.02 0.665833202651 -0.333332291338 0.334166797349 0.333332291338 0.334166797349 0.333332291338 0.665833202651 -0.333332291338
1.03 0.662299949531 -0.333304729778 0.337700050469 0.333304729778 0.337700050469 0.333304729778 0.662299949531 -0.333304729778
1.04 0.658796095876 -0.333240401552 0.341203904124 0.333240401552 0.341203904124 0.333240401552 0.658796095876 -0.333240401552
1.05 0.655321774709 -0.333140217532 0.344678225291 0.333140217532 0.344678225291 0.333140217532 0.655321774709 -0.333140217532
1.06 0.651877099503 -0.333005074757 0.348122900497 0.333005074757 0.348122900497 0.333005074757 0.651877099503 -0.333005074757
1.07 0.648462164943 -0.332835856284 0.351537835057 0.332835856284 0.351537835057 0.332835856284 0.648462164943 -0.332835856284
1.08 0.645077047674 -0.332633431066 0.354922952326 0.332633431066 0.354922952326 0.332633431066 0.645077047674 -0.332633431066
1.09 0.641721807029 -0.332398653861 0.358278192971 0.332398653861 0.358278192971 0.332398653861 0.641721807029 -0.332398653861
1.1 0.638396485737 -0.332132365152 0.361603514263 0.332132365152 0.361603514263 0.332132365152 0.638396485737 -0.332132365152
1.11 0.635101110622 -0.331835391094 0.364898889378 0.331835391094 0.364898889378 0.331835391094 0.635101110622 -0.331835391094
1.12 0.631835693277 -0.331508543485 0.368164306723 0.331508543485 0.368164306723 0.331508543485 0.631835693277 -0.331508543485
1.13 0.628600230726 -0.331152619748 0.371399769274 0.331152619748 0.371399769274 0.331152619748 0.628600230726 -0.331152619748
1.14 0.625394706064 -0.330768402933 0.374605293936 0.330768402933 0.374605293936 0.330768402933 0.625394706064 -0.330768402933
1.15 0.622219089083 -0.330356661743 0.377780910917 0.330356661743 0.377780910917 0.330356661743 0.622219089083 -0.330356661743
1.16 0.619073336881 -0.329918150563 0.380926663119 0.329918150563 0.380926663119 0.329918150563 0.619073336881 -0.329918150563
1.17 0.615957394449 -0.329453609515 0.384042605551 0.329453609515 0.384042605551 0.329453609515 0.615957394449 -0.329453609515
1.18 0.612871195248 -0.328963764518 0.387128804752 0.328963764518 0.387128804752 0.328963764518 0.612871195248 -0.328963764518
1.19 0.609814661761 -0.328449327369 0.390185338239 0.328449327369 0.390185338239 0.328449327369 0.609814661761 -0.328449327369
1.2 0.606787706037 -0.327910995828 0.393212293963 0.327910995828 0.393212293963 0.327910995828 0.606787706037 -0.327910995828
1.21 0.60379023021 -0.327349453718 0.39620976979 0.327349453718 0.39620976979 0.327349453718 0.60379023021 -0.327349453718
1.22 0.600822127005 -0.326765371035 0.399177872995 0.326765371035 0.399177872995 0.326765371035 0.600822127005 -0.326765371035
1.23 0.597883280229 -0.326159404067 0.402116719771 0.326159404067 0.402116719771 0.326159404067 0.597883280229 -0.326159404067
1.24 0.594973565249 -0.32553219552 0.405026434751 0.32553219552 0.405026434751 0.32553219552 0.594973565249 -0.32553219552
1.25 0.592092849441 -0.324884374656 0.407907150559 0.324884374656 0.407907150559 0.324884374656 0.592092849441 -0.324884374656
1.26 0.589240992641 -0.324216557431 0.410759007359 0.324216557431 0.410759007359 0.324216557431 0.589240992641 -0.324216557431
1.27 0.586417847568 -0.323529346651 0.413582152432 0.323529346651 0.413582152432 0.323529346651 0.586417847568 -0.323529346651
1.28 0.583623260239 -0.322823332118 0.416376739761 0.322823332118 0.416376739761 0.322823332118 0.583623260239 -0.322823332118
1.29 0.580857070368 -0.3220990908 0.419142929632 0.3220990908 0.419142929632 0.3220990908 0.580857070368 -0.3220990908
1.3 0.578119111744 -0.321357186987 0.421880888256 0.321357186987 0.421880888256 0.321357186987 0.578119111744 -0.321357186987
1.31 0.575409212609 -0.320598172468 0.424590787391 0.320598172468 0.424590787391 0.320598172468 0.575409212609 -0.320598172468
1.32 0.572727196008 -0.3198225867 0.427272803992 0.3198225867 0.427272803992 0.3198225867 0.572727196008 -0.3198225867
1.33 0.570072880136 -0.319030956985 0.429927119864 0.319030956985 0.429927119864 0.319030956985 0.570072880136 -0.319030956985
1.34 0.567446078666 -0.318223798651 0.432553921334 0.318223798651 0.432553921334 0.318223798651 0.567446078666 -0.318223798651
1.35 0.564846601066 -0.317401615232 0.435153398934 0.317401615232 0.435153398934 0.317401615232 0.564846601066 -0.317401615232
1.36 0.562274252905 -0.316564898654 0.437725747095 0.316564898654 0.437725747095 0.316564898654 0.562274252905 -0.316564898654
1.37 0.559728836147 -0.315714129419 0.440271163853 0.315714129419 0.440271163853 0.315714129419 0.559728836147 -0.315714129419
1.38 0.557210149431 -0.314849776791 0.442789850569 0.314849776791 0.442789850569 0.314849776791 0.557210149431 -0.314849776791
1.39 0.55471798834 -0.313972298988 0.44528201166 0.313972298988 0.44528201166 0.313972298988 0.55471798834 -0.313972298988
1.4 0.552252145662 -0.313082143366 0.447747854338 0.313082143366 0.447747854338 0.313082143366 0.552252145662 -0.313082143366
1.41 0.549812411641 -0.31217974661 0.450187588359 0.31217974661 0.450187588359 0.31217974661 0.549812411641 -0.31217974661
1.42 0.547398574206 -0.311265534925 0.452601425794 0.311265534925 0.452601425794 0.311265534925 0.547398574206 -0.311265534925
1.43 0.545010419209 -0.310339924221 0.454989580791 0.310339924221 0.454989580791 0.310339924221 0.545010419209 -0.310339924221
1.44 0.542647730638 -0.309403320308 0.457352269362 0.309403320308 0.457352269362 0.309403320308 0.542647730638 -0.309403320308
1.45 0.540310290824 -0.308456119076 0.459689709176 0.308456119076 0.459689709176 0.308456119076 0.540310290824 -0.308456119076
1.46 0.537997880648 -0.307498706689 0.462002119352 0.307498706689 0.462002119352 0.307498706689 0.537997880648 -0.307498706689
1.47 0.535710279721 -0.306531459771 0.464289720279 0.306531459771 0.464289720279 0.306531459771 0.535710279721 -0.306531459771
1.48 0.533447266575 -0.305554745586 0.466552733425 0.305554745586 0.466552733425 0.305554745586 0.533447266575 -0.305554745586
1.49 0.531208618834 -0.30456892223 0.468791381166 0.30456892223 0.468791381166 0.30456892223 0.531208618834 -0.30456892223
1.5 0.528994113379 -0.303574338807 0.471005886621 0.303574338807 0.471005886621 0.303574338807 0.528994113379 -0.303574338807
1.51 0.526803526505 -0.302571335614 0.473196473495 0.302571335614 0.473196473495 0.302571335614 0.526803526505 -0.302571335614
1.52 0.524636634075 -0.301560244318 0.475363365925 0.301560244318 0.475363365925 0.301560244318 0.524636634075 -0.301560244318
1.53 0.522493211661 -0.300541388136 0.477506788339 0.300541388136 0.477506788339 0.300541388136 0.522493211661 -0.300541388136
1.54 0.52037303468 -0.29951508201 0.47962696532 0.29951508201 0.47962696532 0.29951508201 0.52037303468 -0.29951508201
1.55 0.518275878527 -0.298481632779 0.481724121473 0.298481632779 0.481724121473 0.298481632779 0.518275878527 -0.298481632779
1.56 0.516201518693 -0.297441339353 0.483798481307 0.297441339353 0.483798481307 0.297441339353 0.516201518693 -0.297441339353
