!Agilent Technologies,N5230A,MY45001538,A.06.04.05
!Agilent N5230A: A.06.04.05
!Date: Wednesday, April 08, 2026 15:49:36
!Correction: S11(Full 2 Port(1,2)) S21(Full 2 Port(1,2)) S12(Full 2 Port(1,2)) S22(Full 2 Port(1,2)) 
!S2P File: Measurements: S11, S21, S12, S22:
# Hz S  dB   R 50
300000 -1.907080e+001 -1.773331e+002 1.098586e+000 -1.339464e+000 1.602974e+000 1.385218e+000 -1.286585e+001 -1.785179e+002
25299625 -2.187672e+001 1.120743e+002 1.439755e+000 -1.131179e+001 4.052162e-001 -2.740057e+001 -1.619525e+001 -1.732112e+002
50299250 -1.996092e+001 7.032256e+001 1.206231e+000 1.412649e+002 1.017867e+000 1.400916e+002 -1.336539e+001 -1.793041e+002
75298875 -1.799053e+001 1.663307e+001 9.247397e-001 1.210339e+002 9.069977e-001 1.211692e+002 -1.360416e+001 1.762251e+002
100298500 -1.730494e+001 -3.878056e+001 6.503165e-001 -7.750806e+001 6.217467e-001 -7.876087e+001 -1.421380e+001 1.715693e+002
125298125 -2.023596e+001 -6.837180e+001 7.583047e-001 -9.263060e+001 2.059364e-001 -9.454373e+001 -1.440477e+001 -1.676063e+002
150297750 -1.682023e+001 -1.036162e+002 5.559635e-001 6.508132e+001 5.616576e-001 6.646078e+001 -1.257463e+001 1.736824e+002
175297375 -1.723403e+001 -1.538314e+002 2.349274e-001 -1.327753e+002 2.611014e-001 -1.332915e+002 -1.367020e+001 1.664218e+002
200297000 -1.982011e+001 1.678789e+002 4.305957e-002 -1.502911e+002 9.646590e-002 -1.503081e+002 -1.465927e+001 1.701570e+002
225296625 -1.967590e+001 1.300248e+002 1.590347e-001 -1.689688e+002 1.269391e-002 -1.680381e+002 -1.381150e+001 1.719026e+002
250296250 -1.989666e+001 6.819544e+001 -2.286866e-001 1.736396e+002 -2.832632e-001 1.732302e+002 -1.510033e+001 1.634239e+002
275295875 -1.898068e+001 2.385615e+001 -2.762614e-001 1.554029e+002 -3.211245e-001 1.558810e+002 -1.488395e+001 1.670559e+002
300295500 -1.683459e+001 -1.184695e+001 -4.547580e-001 1.376837e+002 -3.649432e-001 1.378397e+002 -1.475009e+001 1.648031e+002
325295125 -1.508766e+001 -5.006948e+001 -5.844231e-001 1.205573e+002 -5.694875e-001 1.197687e+002 -1.509949e+001 1.609290e+002
350294750 -1.477489e+001 -7.977139e+001 -6.670972e-001 1.022877e+002 -7.055762e-001 1.027017e+002 -1.531796e+001 1.556112e+002
375294375 -1.402398e+001 -1.046271e+002 -8.171679e-001 8.487605e+001 -7.671472e-001 8.505341e+001 -1.599262e+001 1.499583e+002
400294000 -1.394940e+001 -1.344167e+002 -9.024482e-001 6.772039e+001 -9.219393e-001 6.724969e+001 -1.707524e+001 1.422965e+002
425293625 -1.514178e+001 -1.589827e+002 -9.582967e-001 4.985530e+001 -1.003201e+000 5.054641e+001 -1.893787e+001 1.367989e+002
450293250 -1.567468e+001 1.756360e+002 -1.084348e+000 3.259831e+001 -9.936979e-001 3.258097e+001 -2.092265e+001 1.340921e+002
475292875 -1.723980e+001 1.437133e+002 -1.072771e+000 1.518487e+001 -1.128902e+000 1.487678e+001 -2.409254e+001 1.329148e+002
500292500 -1.925721e+001 1.140686e+002 -1.185240e+000 -2.893797e+000 -1.218721e+000 -2.353514e+000 -2.832928e+001 1.544801e+002
525292125 -2.040967e+001 7.420802e+001 -1.241762e+000 -1.969702e+001 -1.189894e+000 -1.975140e+001 -2.694582e+001 1.642917e+002
550291750 -2.133105e+001 2.903658e+001 -1.225493e+000 -3.725033e+001 -1.275325e+000 -3.765396e+001 -2.839743e+001 1.687824e+002
575291375 -2.181328e+001 -1.960470e+000 -1.290278e+000 -5.533227e+001 -1.316446e+000 -5.493866e+001 -3.103523e+001 1.738634e+002
600291000 -1.992007e+001 -2.791518e+001 -1.389852e+000 -7.268114e+001 -1.320311e+000 -7.289404e+001 -3.694452e+001 -1.668544e+002
625290625 -1.955854e+001 -5.350853e+001 -1.377468e+000 -9.032185e+001 -1.435134e+000 -9.062782e+001 -3.798146e+001 -7.801574e+001
650290250 -1.923373e+001 -6.305051e+001 -1.472559e+000 -1.083347e+002 -1.489477e+000 -1.079419e+002 -2.772406e+001 -5.543503e+001
675289875 -1.787331e+001 -7.786381e+001 -1.569977e+000 -1.255187e+002 -1.489450e+000 -1.257499e+002 -2.252637e+001 -6.064327e+001
700289500 -1.773683e+001 -8.784586e+001 -1.548692e+000 -1.432066e+002 -1.605458e+000 -1.434602e+002 -1.920013e+001 -6.830957e+001
725289125 -1.642192e+001 -9.696841e+001 -1.655165e+000 -1.612323e+002 -1.649758e+000 -1.607914e+002 -1.686396e+001 -7.958128e+001
750288750 -1.594608e+001 -1.132789e+002 -1.742935e+000 -1.783758e+002 -1.693710e+000 -1.787226e+002 -1.526854e+001 -9.012374e+001
775288375 -1.543478e+001 -1.250037e+002 -1.745037e+000 1.639860e+002 -1.821559e+000 1.638127e+002 -1.422692e+001 -1.000840e+002
800288000 -1.487714e+001 -1.438715e+002 -1.854783e+000 1.462512e+002 -1.837347e+000 1.467174e+002 -1.374930e+001 -1.099669e+002
825287625 -1.559696e+001 -1.632326e+002 -1.903200e+000 1.292119e+002 -1.858909e+000 1.287903e+002 -1.349319e+001 -1.188530e+002
850287250 -1.575499e+001 1.768084e+002 -1.885886e+000 1.115111e+002 -1.967634e+000 1.113537e+002 -1.356856e+001 -1.262447e+002
875286875 -1.662068e+001 1.466120e+002 -1.974795e+000 9.374223e+001 -1.957166e+000 9.414779e+001 -1.384640e+001 -1.311183e+002
900286500 -1.818661e+001 1.155826e+002 -2.008056e+000 7.652668e+001 -1.967813e+000 7.605387e+001 -1.415058e+001 -1.351879e+002
925286125 -1.788704e+001 7.878708e+001 -1.998251e+000 5.848793e+001 -2.079159e+000 5.846661e+001 -1.421554e+001 -1.369982e+002
950285750 -1.705363e+001 3.584354e+001 -2.120832e+000 4.057962e+001 -2.094189e+000 4.086865e+001 -1.400156e+001 -1.390550e+002
975285375 -1.579972e+001 4.275081e+000 -2.216820e+000 2.305804e+001 -2.193597e+000 2.274972e+001 -1.371424e+001 -1.414954e+002
1000285000 -1.347500e+001 -2.269690e+001 -2.340707e+000 5.695079e+000 -2.411171e+000 5.686755e+000 -1.301155e+001 -1.444705e+002
1025284625 -1.231598e+001 -5.031096e+001 -2.401916e+000 -1.149393e+001 -2.378811e+000 -1.111303e+001 -1.214902e+001 -1.537623e+002
1050284250 -1.164701e+001 -7.061947e+001 -2.458795e+000 -2.858062e+001 -2.416635e+000 -2.899701e+001 -1.185495e+001 -1.641538e+002
1075283875 -1.088939e+001 -9.080838e+001 -2.476403e+000 -4.603919e+001 -2.546939e+000 -4.592553e+001 -1.183134e+001 -1.761704e+002
1100283500 -1.095243e+001 -1.103676e+002 -2.546518e+000 -6.331829e+001 -2.524519e+000 -6.294469e+001 -1.208028e+001 1.712676e+002
1125283125 -1.108916e+001 -1.274148e+002 -2.573448e+000 -8.027683e+001 -2.543507e+000 -8.056683e+001 -1.259128e+001 1.581465e+002
1150282750 -1.149746e+001 -1.472991e+002 -2.531698e+000 -9.754113e+001 -2.597429e+000 -9.760817e+001 -1.340588e+001 1.444087e+002
1175282375 -1.270737e+001 -1.659646e+002 -2.549464e+000 -1.151842e+002 -2.524605e+000 -1.148121e+002 -1.448946e+001 1.306579e+002
1200282000 -1.382736e+001 1.740962e+002 -2.556452e+000 -1.324206e+002 -2.516088e+000 -1.328185e+002 -1.587915e+001 1.177267e+002
1225281625 -1.564033e+001 1.473177e+002 -2.506876e+000 -1.501890e+002 -2.560333e+000 -1.502498e+002 -1.750372e+001 1.057084e+002
1250281250 -1.824146e+001 1.192184e+002 -2.568660e+000 -1.682184e+002 -2.542924e+000 -1.677677e+002 -1.958008e+001 9.667684e+001
1275280875 -1.918777e+001 7.968382e+001 -2.659941e+000 1.747194e+002 -2.616277e+000 1.743901e+002 -2.097810e+001 1.022440e+002
1300280500 -1.870808e+001 2.848453e+001 -2.539976e+000 1.573803e+002 -2.601233e+000 1.572976e+002 -1.938547e+001 9.958402e+001
1325280125 -1.738646e+001 -5.404172e+000 -2.566990e+000 1.390094e+002 -2.535475e+000 1.394020e+002 -1.841205e+001 8.875584e+001
1350279750 -1.503400e+001 -3.104887e+001 -2.639413e+000 1.214185e+002 -2.592259e+000 1.209588e+002 -1.710779e+001 7.704778e+001
1375279375 -1.359070e+001 -5.330244e+001 -2.648308e+000 1.034359e+002 -2.729931e+000 1.034339e+002 -1.573032e+001 6.271527e+001
1400279000 -1.252361e+001 -6.900028e+001 -2.795091e+000 8.552137e+001 -2.752039e+000 8.592648e+001 -1.458163e+001 4.687052e+001
1425278625 -1.150662e+001 -8.605615e+001 -2.897071e+000 6.849706e+001 -2.855993e+000 6.805920e+001 -1.353224e+001 2.996357e+001
1450278250 -1.118453e+001 -1.017270e+002 -2.919262e+000 5.099661e+001 -2.985784e+000 5.109508e+001 -1.273098e+001 1.296365e+001
1475277875 -1.085754e+001 -1.154951e+002 -3.023938e+000 3.373448e+001 -2.978342e+000 3.409120e+001 -1.229070e+001 -3.296037e+000
1500277500 -1.092741e+001 -1.318697e+002 -3.014409e+000 1.698206e+001 -3.014180e+000 1.651997e+001 -1.206532e+001 -1.918293e+001
1525277125 -1.129880e+001 -1.465627e+002 -2.976131e+000 -6.448941e-001 -3.039487e+000 -4.639253e-001 -1.207627e+001 -3.382004e+001
1550276750 -1.177158e+001 -1.637016e+002 -3.027299e+000 -1.798390e+001 -2.964725e+000 -1.779040e+001 -1.229449e+001 -4.735046e+001
1575276375 -1.309716e+001 1.766426e+002 -2.961955e+000 -3.523649e+001 -2.945350e+000 -3.559354e+001 -1.280668e+001 -5.911341e+001
1600276000 -1.458301e+001 1.551976e+002 -2.904476e+000 -5.331097e+001 -2.949171e+000 -5.316240e+001 -1.338994e+001 -6.890923e+001
1625275625 -1.642235e+001 1.249029e+002 -2.937907e+000 -7.120503e+001 -2.894278e+000 -7.107729e+001 -1.401568e+001 -7.621111e+001
1650275250 -1.850211e+001 8.501820e+001 -2.921698e+000 -8.912725e+001 -2.920227e+000 -8.940187e+001 -1.445326e+001 -8.050288e+001
1675274875 -1.811950e+001 3.961216e+001 -2.957624e+000 -1.075589e+002 -2.986930e+000 -1.074993e+002 -1.442858e+001 -8.347895e+001
1700274500 -1.610693e+001 1.876841e-001 -3.089210e+000 -1.258039e+002 -3.060303e+000 -1.257491e+002 -1.391923e+001 -8.727547e+001
1725274125 -1.432133e+001 -2.716163e+001 -3.266037e+000 -1.439039e+002 -3.262759e+000 -1.440929e+002 -1.311530e+001 -9.220496e+001
1750273750 -1.224847e+001 -4.519624e+001 -3.541850e+000 -1.608447e+002 -3.558686e+000 -1.608370e+002 -1.175148e+001 -1.009171e+002
1775273375 -1.050333e+001 -6.572071e+001 -3.585802e+000 -1.773753e+002 -3.563731e+000 -1.773378e+002 -1.092305e+001 -1.154077e+002
1800273000 -9.657013e+000 -8.447807e+001 -3.621498e+000 1.655395e+002 -3.623107e+000 1.653369e+002 -1.052192e+001 -1.288442e+002
1825272625 -9.124985e+000 -1.016847e+002 -3.680392e+000 1.484425e+002 -3.690985e+000 1.483976e+002 -1.024880e+001 -1.427004e+002
1850272250 -9.025262e+000 -1.184768e+002 -3.705884e+000 1.315016e+002 -3.702953e+000 1.315204e+002 -1.016578e+001 -1.571159e+002
1875271875 -9.311310e+000 -1.349475e+002 -3.699826e+000 1.145191e+002 -3.681851e+000 1.144069e+002 -1.030415e+001 -1.710206e+002
1900271500 -9.846194e+000 -1.520362e+002 -3.656631e+000 9.731496e+001 -3.669806e+000 9.719236e+001 -1.066197e+001 1.756428e+002
1925271125 -1.085095e+001 -1.703320e+002 -3.609123e+000 -1.001527e+002 -3.603210e+000 -1.000910e+002 -1.121424e+001 1.628780e+002
1950270750 -1.240453e+001 1.697613e+002 -3.555949e+000 -1.178815e+002 -3.532999e+000 -1.179139e+002 -1.200196e+001 1.521276e+002
1975270375 -1.443247e+001 1.447702e+002 -3.528996e+000 -1.359986e+002 -3.524094e+000 -1.360955e+002 -1.293995e+001 1.446340e+002
2000270000 -1.705621e+001 1.113587e+002 -3.554515e+000 -1.544397e+002 -3.579693e+000 -1.544492e+002 -1.376202e+001 1.408286e+002
2025269625 -1.851594e+001 6.888424e+001 -3.785004e+000 -1.728604e+002 -3.759890e+000 -1.728598e+002 -1.387753e+001 1.418553e+002
2050269250 -1.591401e+001 2.442074e+001 -4.013373e+000 1.709872e+002 -4.017651e+000 1.708393e+002 -1.246374e+001 1.395867e+002
2075268875 -1.312709e+001 -1.399057e+001 -3.932674e+000 1.540951e+002 -3.947854e+000 1.541463e+002 -1.166867e+001 1.297255e+002
2100268500 -1.126990e+001 -4.091705e+001 -3.948821e+000 1.364168e+002 -3.925715e+000 1.363920e+002 -1.100472e+001 1.202408e+002
2125268125 -9.890256e+000 -6.208630e+001 -4.015610e+000 1.188685e+002 -4.018089e+000 1.186842e+002 -1.031644e+001 1.093076e+002
2150267750 -9.085303e+000 -8.017358e+001 -4.103250e+000 1.014336e+002 -4.117876e+000 1.014868e+002 -9.881657e+000 9.714174e+001
2175267375 -8.579323e+000 -9.597628e+001 -4.217693e+000 8.436724e+001 -4.185081e+000 8.449726e+001 -9.635873e+000 8.387943e+001
2200267000 -8.335755e+000 -1.118798e+002 -4.250030e+000 6.784052e+001 -4.248249e+000 6.760254e+001 -9.582670e+000 6.973602e+001
2225266625 -8.560793e+000 -1.273591e+002 -4.210908e+000 5.093964e+001 -4.244388e+000 5.098510e+001 -9.837103e+000 5.556129e+001
2250266250 -9.096436e+000 -1.424231e+002 -4.186998e+000 3.386608e+001 -4.162988e+000 3.403281e+001 -1.043205e+001 4.115660e+001
2275265875 -1.006388e+001 -1.588284e+002 -4.120317e+000 1.689807e+001 -4.098201e+000 1.662411e+001 -1.135523e+001 2.733477e+001
2300265500 -1.176495e+001 -1.759029e+002 -4.011937e+000 -5.067234e-001 -4.047108e+000 -4.324072e-001 -1.256255e+001 1.626551e+001
2325265125 -1.415543e+001 1.652209e+002 -3.906607e+000 -1.816556e+001 -3.876266e+000 -1.795069e+001 -1.375922e+001 7.596573e+000
2350264750 -1.799252e+001 1.385738e+002 -3.786007e+000 -3.608185e+001 -3.759256e+000 -3.645572e+001 -1.486121e+001 1.347267e+000
2375264375 -2.355312e+001 9.130492e+001 -3.685189e+000 -5.494671e+001 -3.741647e+000 -5.491820e+001 -1.564235e+001 -1.938052e+000
2400264000 -2.179949e+001 1.359916e+001 -3.767999e+000 -7.391576e+001 -3.729396e+000 -7.362160e+001 -1.557170e+001 -3.527359e+000
2425263625 -1.676136e+001 -2.861632e+001 -3.883794e+000 -9.222849e+001 -3.842937e+000 -9.266022e+001 -1.464948e+001 -8.973116e+000
2450263250 -1.397650e+001 -5.080733e+001 -4.003074e+000 -1.110513e+002 -4.090039e+000 -1.110135e+002 -1.339345e+001 -1.808804e+001
2475262875 -1.208911e+001 -6.653481e+001 -4.404149e+000 -1.291676e+002 -4.337676e+000 -1.287492e+002 -1.210629e+001 -3.163765e+001
2500262500 -1.112826e+001 -7.776318e+001 -4.661266e+000 -1.447240e+002 -4.631969e+000 -1.454036e+002 -1.107422e+001 -4.956712e+001
2525262125 -9.636605e+000 -8.690854e+001 -4.590946e+000 -1.614721e+002 -4.692073e+000 -1.612235e+002 -1.049542e+001 -6.769321e+001
2550261750 -8.498049e+000 -1.014103e+002 -4.702655e+000 -1.785626e+002 -4.609590e+000 -1.782085e+002 -1.015832e+001 -8.393681e+001
2575261375 -8.258583e+000 -1.148759e+002 -4.664631e+000 1.647801e+002 -4.661131e+000 1.640552e+002 -9.939963e+000 -1.001422e+002
2600261000 -8.080628e+000 -1.276206e+002 -4.671916e+000 1.471127e+002 -4.758751e+000 1.475073e+002 -9.760681e+000 -1.162028e+002
2625260625 -8.388518e+000 -1.426280e+002 -4.743795e+000 1.304688e+002 -4.643463e+000 1.306448e+002 -9.768018e+000 -1.308134e+002
2650260250 -9.123302e+000 -1.556102e+002 -4.609447e+000 1.134965e+002 -4.618790e+000 1.129625e+002 -1.003259e+001 -1.444896e+002
2675259875 -1.014430e+001 -1.712400e+002 -4.507729e+000 9.556922e+001 -4.572952e+000 9.588499e+001 -1.059300e+001 -1.574597e+002
2700259500 -1.239931e+001 1.717627e+002 -4.467160e+000 7.749813e+001 -4.386966e+000 7.775490e+001 -1.137369e+001 -1.672788e+002
2725259125 -1.527775e+001 1.548595e+002 -4.406296e+000 5.904880e+001 -4.413127e+000 5.848220e+001 -1.228791e+001 -1.726041e+002
2750258750 -2.070486e+001 1.255421e+002 -4.492173e+000 3.956036e+001 -4.561709e+000 3.982500e+001 -1.296950e+001 -1.719809e+002
2775258375 -3.042901e+001 6.622077e+001 -4.929853e+000 2.079786e+001 -4.843769e+000 2.103017e+001 -1.223981e+001 -1.685472e+002
2800258000 -2.210002e+001 4.742158e+000 -5.322476e+000 5.634451e+000 -5.334754e+000 5.079192e+000 -1.051230e+001 -1.741860e+002
2825257625 -1.444137e+001 -3.248116e+001 -5.163635e+000 -1.020630e+001 -5.227987e+000 -1.000033e+001 -9.762360e+000 1.744274e+002
2850257250 -1.117933e+001 -5.901580e+001 -5.134272e+000 -2.814886e+001 -5.067284e+000 -2.783360e+001 -9.394410e+000 1.646837e+002
2875256875 -9.172573e+000 -7.813725e+001 -5.233954e+000 -4.562983e+001 -5.228360e+000 -4.610038e+001 -9.074321e+000 1.550209e+002
2900256500 -8.088472e+000 -9.688969e+001 -5.324261e+000 -6.278843e+001 -5.395808e+000 -6.263840e+001 -8.862739e+000 1.446930e+002
2925256125 -7.709389e+000 -1.125006e+002 -5.439017e+000 -7.981461e+001 -5.380283e+000 -7.939925e+001 -8.824310e+000 1.333758e+002
2950255750 -7.498201e+000 -1.273259e+002 -5.503071e+000 -9.602089e+001 -5.459747e+000 -9.659229e+001 -9.020759e+000 1.214705e+002
2975255375 -7.915854e+000 -1.430597e+002 -5.402452e+000 -1.127900e+002 -5.478944e+000 -1.126803e+002 -9.566668e+000 1.097009e+002
3000255000 -8.725950e+000 -1.573274e+002 -5.373755e+000 -1.301221e+002 -5.315476e+000 -1.295842e+002 -1.040066e+001 9.902488e+001
3025254625 -9.910686e+000 -1.732077e+002 -5.285888e+000 -1.468721e+002 -5.235943e+000 -1.475153e+002 -1.142801e+001 8.921312e+001
3050254250 -1.219157e+001 1.709927e+002 -5.117736e+000 -1.652653e+002 -5.214740e+000 -1.651659e+002 -1.278192e+001 8.219270e+001
3075253875 -1.484421e+001 1.542983e+002 -5.300131e+000 1.762824e+002 -5.227069e+000 1.768676e+002 -1.373105e+001 8.124397e+001
3100253500 -1.901553e+001 1.186062e+002 -5.348141e+000 1.603121e+002 -5.291114e+000 1.595742e+002 -1.348059e+001 7.779819e+001
3125253125 -2.329619e+001 3.440037e+001 -5.101483e+000 1.423358e+002 -5.222083e+000 1.423762e+002 -1.333597e+001 6.921011e+001
3150252750 -1.768899e+001 -2.530087e+001 -5.193645e+000 1.232701e+002 -5.110904e+000 1.239808e+002 -1.323727e+001 5.970855e+001
3175252375 -1.341728e+001 -5.363314e+001 -5.327918e+000 1.059075e+002 -5.259993e+000 1.050202e+002 -1.301428e+001 4.870924e+001
3200252000 -1.147630e+001 -7.424983e+001 -5.331686e+000 8.781804e+001 -5.489480e+000 8.798040e+001 -1.266185e+001 3.581413e+001
3225251625 -1.020595e+001 -8.754971e+001 -5.616207e+000 6.990276e+001 -5.500299e+000 7.076122e+001 -1.221560e+001 2.103650e+001
3250251250 -9.396374e+000 -1.010389e+002 -5.734907e+000 5.405799e+001 -5.671023e+000 5.296007e+001 -1.170734e+001 3.881157e+000
3275250875 -9.324642e+000 -1.115795e+002 -5.677108e+000 3.682664e+001 -5.849361e+000 3.713421e+001 -1.139565e+001 -1.557696e+001
3300250500 -8.952791e+000 -1.197677e+002 -5.797145e+000 2.022635e+001 -5.638121e+000 2.103136e+001 -1.138411e+001 -3.356429e+001
3325250125 -8.863733e+000 -1.299741e+002 -5.581294e+000 4.115435e+000 -5.544392e+000 2.836257e+000 -1.128433e+001 -5.006145e+001
3350249750 -8.973174e+000 -1.390292e+002 -5.393856e+000 -1.478857e+001 -5.547102e+000 -1.419674e+001 -1.117041e+001 -6.651891e+001
3375249375 -9.339427e+000 -1.519594e+002 -5.514657e+000 -3.256636e+001 -5.341189e+000 -3.202227e+001 -1.116036e+001 -8.204451e+001
3400249000 -1.063120e+001 -1.628650e+002 -5.351633e+000 -4.990981e+001 -5.363576e+000 -5.105306e+001 -1.140967e+001 -9.583276e+001
3425248625 -1.192744e+001 -1.734826e+002 -5.315855e+000 -6.919662e+001 -5.448917e+000 -6.856303e+001 -1.180088e+001 -1.070679e+002
3450248250 -1.466150e+001 1.722110e+002 -5.471180e+000 -8.726331e+001 -5.311966e+000 -8.682618e+001 -1.213488e+001 -1.156862e+002
3475247875 -1.901420e+001 1.639903e+002 -5.393712e+000 -1.054068e+002 -5.412836e+000 -1.065114e+002 -1.238451e+001 -1.207483e+002
3500247500 -2.956769e+001 1.570549e+002 -5.550833e+000 -1.257435e+002 -5.667736e+000 -1.250648e+002 -1.213857e+001 -1.228450e+002
3525247125 -2.623638e+001 -7.451173e+001 -6.170710e+000 -1.440283e+002 -6.006862e+000 -1.436546e+002 -1.098193e+001 -1.265355e+002
3550246750 -2.220579e+001 -5.703839e+001 -6.531367e+000 -1.585705e+002 -6.563900e+000 -1.595123e+002 -9.606172e+000 -1.368239e+002
3575246375 -1.472339e+001 -5.067613e+001 -6.420180e+000 -1.743846e+002 -6.503766e+000 -1.737052e+002 -9.090420e+000 -1.491182e+002
3600246000 -1.075934e+001 -6.915409e+001 -6.370627e+000 1.682928e+002 -6.240658e+000 1.685772e+002 -8.862864e+000 -1.594482e+002
3625245625 -8.751387e+000 -8.467574e+001 -6.393315e+000 1.505159e+002 -6.408415e+000 1.498088e+002 -8.581421e+000 -1.699336e+002
3650245250 -7.460038e+000 -1.009431e+002 -6.568074e+000 1.329421e+002 -6.631752e+000 1.334243e+002 -8.432814e+000 1.795644e+002
3675244875 -7.073759e+000 -1.160207e+002 -6.727316e+000 1.163324e+002 -6.628500e+000 1.166511e+002 -8.483498e+000 1.689221e+002
3700244500 -6.919859e+000 -1.295074e+002 -6.804739e+000 1.001852e+002 -6.772793e+000 9.953191e+001 -8.672743e+000 1.586365e+002
3725244125 -7.266332e+000 -1.449106e+002 -6.707860e+000 8.386994e+001 -6.791321e+000 8.415527e+001 -8.913830e+000 1.486605e+002
3750243750 -8.330420e+000 -1.586777e+002 -6.592480e+000 6.661474e+001 -6.507341e+000 6.712724e+001 -9.464476e+000 1.387046e+002
3775243375 -9.795114e+000 -1.726949e+002 -6.489160e+000 4.905862e+001 -6.428866e+000 4.834991e+001 -1.035122e+001 1.305241e+002
3800243000 -1.279549e+001 1.730145e+002 -6.375809e+000 3.005301e+001 -6.489724e+000 3.026493e+001 -1.122269e+001 1.263484e+002
