!Agilent Technologies,N5230A,MY45001538,A.06.04.05
!Agilent N5230A: A.06.04.05
!Date: Wednesday, April 08, 2026 15:59:34
!Correction: S11(Full 2 Port(1,2)) S21(Full 2 Port(1,2)) S12(Full 2 Port(1,2)) S22(Full 2 Port(1,2)) 
!S2P File: Measurements: S11, S21, S12, S22:
# Hz S  dB   R 50
300000 -1.896823e+001 -1.774381e+002 1.112847e+000 -1.267290e+000 1.615048e+000 1.382776e+000 -1.281100e+001 -1.783303e+002
25299625 -2.187683e+001 1.124143e+002 1.444592e+000 -1.135447e+001 4.113750e-001 -2.744777e+001 -1.614819e+001 -1.729571e+002
50299250 -2.004348e+001 7.044135e+001 1.209759e+000 1.411670e+002 1.022374e+000 1.399924e+002 -1.329953e+001 -1.789430e+002
75298875 -1.810336e+001 1.613188e+001 9.278936e-001 1.208859e+002 9.085333e-001 1.210307e+002 -1.350553e+001 1.766481e+002
100298500 -1.738083e+001 -3.991525e+001 6.519954e-001 -7.769631e+001 6.236614e-001 -7.894821e+001 -1.409406e+001 1.719364e+002
125298125 -2.031657e+001 -7.004115e+001 7.566436e-001 -9.283231e+001 2.023052e-001 -9.475424e+001 -1.427741e+001 -1.676349e+002
150297750 -1.682463e+001 -1.049749e+002 5.523933e-001 6.483144e+001 5.593265e-001 6.621259e+001 -1.248242e+001 1.736333e+002
175297375 -1.716389e+001 -1.548974e+002 2.305776e-001 -1.330531e+002 2.579095e-001 -1.335665e+002 -1.361142e+001 1.663959e+002
200297000 -1.972316e+001 1.673246e+002 3.685215e-002 -1.505851e+002 9.204248e-002 -1.506145e+002 -1.464490e+001 1.703350e+002
225296625 -1.962804e+001 1.301094e+002 1.533302e-001 -1.692666e+002 8.856972e-003 -1.683466e+002 -1.381229e+001 1.724360e+002
250296250 -2.004047e+001 6.755482e+001 -2.424751e-001 1.732382e+002 -2.965464e-001 1.728225e+002 -1.511460e+001 1.638462e+002
275295875 -1.929031e+001 2.320830e+001 -2.768919e-001 1.550312e+002 -3.228173e-001 1.555033e+002 -1.487808e+001 1.686447e+002
300295500 -1.714755e+001 -1.336990e+001 -4.535458e-001 1.372463e+002 -3.654097e-001 1.374138e+002 -1.467397e+001 1.668412e+002
325295125 -1.535437e+001 -5.240710e+001 -5.859581e-001 1.200603e+002 -5.730150e-001 1.192811e+002 -1.493337e+001 1.633679e+002
350294750 -1.502258e+001 -8.272352e+001 -6.699256e-001 1.017600e+002 -7.082405e-001 1.021729e+002 -1.505359e+001 1.581954e+002
375294375 -1.424168e+001 -1.078686e+002 -8.208019e-001 8.430191e+001 -7.716466e-001 8.448366e+001 -1.561004e+001 1.527578e+002
400294000 -1.411621e+001 -1.380434e+002 -9.094648e-001 6.710775e+001 -9.283468e-001 6.664411e+001 -1.656208e+001 1.452492e+002
425293625 -1.528758e+001 -1.632247e+002 -9.688385e-001 4.920911e+001 -1.013445e+000 4.989949e+001 -1.822685e+001 1.397881e+002
450293250 -1.576934e+001 1.711661e+002 -1.094973e+000 3.190990e+001 -1.007532e+000 3.191430e+001 -1.995090e+001 1.365872e+002
475292875 -1.723275e+001 1.387822e+002 -1.089719e+000 1.450043e+001 -1.143252e+000 1.418091e+001 -2.272615e+001 1.343344e+002
500292500 -1.914837e+001 1.088551e+002 -1.202322e+000 -3.610379e+000 -1.235550e+000 -3.076425e+000 -2.651100e+001 1.492112e+002
525292125 -2.013882e+001 6.965997e+001 -1.262794e+000 -2.042447e+001 -1.210731e+000 -2.046876e+001 -2.576010e+001 1.574661e+002
550291750 -2.100788e+001 2.589551e+001 -1.247425e+000 -3.796946e+001 -1.297724e+000 -3.838358e+001 -2.750742e+001 1.598841e+002
575291375 -2.165138e+001 -4.284468e+000 -1.309100e+000 -5.606850e+001 -1.336468e+000 -5.569442e+001 -3.042013e+001 1.624421e+002
600291000 -1.994442e+001 -2.954639e+001 -1.406257e+000 -7.343994e+001 -1.336132e+000 -7.365122e+001 -3.703703e+001 1.755147e+002
625290625 -1.979243e+001 -5.491607e+001 -1.394022e+000 -9.108821e+001 -1.453083e+000 -9.141467e+001 -4.032314e+001 -7.648327e+001
650290250 -1.956077e+001 -6.379755e+001 -1.482585e+000 -1.091209e+002 -1.501266e+000 -1.087258e+002 -2.828131e+001 -5.515540e+001
675289875 -1.825542e+001 -7.854285e+001 -1.577976e+000 -1.263645e+002 -1.500082e+000 -1.265847e+002 -2.286543e+001 -6.135311e+001
700289500 -1.818245e+001 -8.780156e+001 -1.556616e+000 -1.440678e+002 -1.614323e+000 -1.443225e+002 -1.946824e+001 -6.941576e+001
725289125 -1.681383e+001 -9.641382e+001 -1.658508e+000 -1.621302e+002 -1.655233e+000 -1.616995e+002 -1.710820e+001 -8.098280e+001
750288750 -1.631928e+001 -1.125051e+002 -1.746369e+000 -1.793264e+002 -1.697937e+000 -1.796679e+002 -1.550103e+001 -9.153325e+001
775288375 -1.573875e+001 -1.239451e+002 -1.752670e+000 1.629961e+002 -1.826231e+000 1.628262e+002 -1.446165e+001 -1.015692e+002
800288000 -1.513581e+001 -1.429209e+002 -1.858997e+000 1.452265e+002 -1.842135e+000 1.457009e+002 -1.399774e+001 -1.114579e+002
825287625 -1.583273e+001 -1.619328e+002 -1.912646e+000 1.281541e+002 -1.869654e+000 1.277393e+002 -1.376030e+001 -1.203435e+002
850287250 -1.591736e+001 1.780374e+002 -1.900001e+000 1.104482e+002 -1.982831e+000 1.102980e+002 -1.384302e+001 -1.275835e+002
875286875 -1.683292e+001 1.478916e+002 -1.981315e+000 9.267987e+001 -1.962290e+000 9.308208e+001 -1.411019e+001 -1.326393e+002
900286500 -1.843860e+001 1.176695e+002 -2.017031e+000 7.542853e+001 -1.974458e+000 7.497421e+001 -1.445899e+001 -1.367493e+002
925286125 -1.819356e+001 8.079666e+001 -2.004683e+000 5.740596e+001 -2.083144e+000 5.735419e+001 -1.455616e+001 -1.385346e+002
950285750 -1.751775e+001 3.746663e+001 -2.125879e+000 3.946367e+001 -2.100459e+000 3.978745e+001 -1.435917e+001 -1.405399e+002
975285375 -1.627804e+001 5.735062e+000 -2.213953e+000 2.199447e+001 -2.190057e+000 2.169917e+001 -1.408472e+001 -1.432547e+002
1000285000 -1.392579e+001 -2.180183e+001 -2.325146e+000 4.575046e+000 -2.394338e+000 4.563833e+000 -1.346340e+001 -1.462684e+002
1025284625 -1.280015e+001 -4.971080e+001 -2.378519e+000 -1.268609e+001 -2.357956e+000 -1.229556e+001 -1.263279e+001 -1.556156e+002
1050284250 -1.213103e+001 -6.987260e+001 -2.434050e+000 -2.982221e+001 -2.390779e+000 -3.023428e+001 -1.239597e+001 -1.661004e+002
1075283875 -1.136828e+001 -9.017829e+001 -2.445354e+000 -4.731748e+001 -2.516650e+000 -4.722308e+001 -1.242913e+001 -1.782629e+002
1100283500 -1.148229e+001 -1.096073e+002 -2.511194e+000 -6.469450e+001 -2.487841e+000 -6.430502e+001 -1.274257e+001 1.689304e+002
1125283125 -1.163562e+001 -1.263582e+002 -2.537713e+000 -8.171938e+001 -2.508787e+000 -8.200166e+001 -1.332832e+001 1.555222e+002
1150282750 -1.208079e+001 -1.460757e+002 -2.496303e+000 -9.902895e+001 -2.565726e+000 -9.908315e+001 -1.422571e+001 1.413401e+002
1175282375 -1.337685e+001 -1.643677e+002 -2.512740e+000 -1.166899e+002 -2.485674e+000 -1.162992e+002 -1.540026e+001 1.268503e+002
1200282000 -1.462383e+001 1.757994e+002 -2.504223e+000 -1.339323e+002 -2.464619e+000 -1.343547e+002 -1.695374e+001 1.129724e+002
1225281625 -1.678910e+001 1.494346e+002 -2.450029e+000 -1.518679e+002 -2.505738e+000 -1.519159e+002 -1.879874e+001 1.006890e+002
1250281250 -1.984157e+001 1.222711e+002 -2.510020e+000 -1.699807e+002 -2.484735e+000 -1.695261e+002 -2.097146e+001 9.105785e+001
1275280875 -2.117052e+001 8.033269e+001 -2.604242e+000 1.726964e+002 -2.560616e+000 1.723579e+002 -2.287831e+001 9.630652e+001
1300280500 -2.023632e+001 2.408535e+001 -2.522725e+000 1.554324e+002 -2.586793e+000 1.553641e+002 -2.092475e+001 9.794834e+001
1325280125 -1.851280e+001 -1.041782e+001 -2.547091e+000 1.371258e+002 -2.517568e+000 1.375032e+002 -1.962141e+001 8.661964e+001
1350279750 -1.583899e+001 -3.507229e+001 -2.613763e+000 1.195536e+002 -2.568007e+000 1.190842e+002 -1.804492e+001 7.457225e+001
1375279375 -1.427442e+001 -5.657014e+001 -2.616903e+000 1.015549e+002 -2.701369e+000 1.015569e+002 -1.645211e+001 5.988104e+001
1400279000 -1.313031e+001 -7.151324e+001 -2.752283e+000 8.361795e+001 -2.709988e+000 8.401920e+001 -1.515750e+001 4.371477e+001
1425278625 -1.208239e+001 -8.840749e+001 -2.838565e+000 6.646696e+001 -2.800688e+000 6.604098e+001 -1.402904e+001 2.681799e+001
1450278250 -1.178393e+001 -1.035426e+002 -2.867982e+000 4.882131e+001 -2.932202e+000 4.892829e+001 -1.316178e+001 1.022869e+001
1475277875 -1.143607e+001 -1.169976e+002 -2.977894e+000 3.149945e+001 -2.931956e+000 3.186003e+001 -1.266727e+001 -5.716631e+000
1500277500 -1.153672e+001 -1.333598e+002 -2.967159e+000 1.468253e+001 -2.970503e+000 1.420904e+001 -1.242395e+001 -2.123703e+001
1525277125 -1.194841e+001 -1.479266e+002 -2.939409e+000 -3.033071e+000 -3.002810e+000 -2.847134e+000 -1.243800e+001 -3.543100e+001
1550276750 -1.248085e+001 -1.652227e+002 -2.998438e+000 -2.041443e+001 -2.935187e+000 -2.021523e+001 -1.267744e+001 -4.831651e+001
1575276375 -1.393644e+001 1.746268e+002 -2.932766e+000 -3.770195e+001 -2.920094e+000 -3.807294e+001 -1.322780e+001 -5.929655e+001
1600276000 -1.558523e+001 1.522051e+002 -2.880187e+000 -5.583475e+001 -2.927595e+000 -5.567976e+001 -1.382577e+001 -6.797804e+001
1625275625 -1.760825e+001 1.193020e+002 -2.922402e+000 -7.376922e+001 -2.880329e+000 -7.364072e+001 -1.441344e+001 -7.403317e+001
1650275250 -1.955652e+001 7.488250e+001 -2.916601e+000 -9.171338e+001 -2.916098e+000 -9.198425e+001 -1.472541e+001 -7.724191e+001
1675274875 -1.843323e+001 2.854955e+001 -2.959879e+000 -1.101212e+002 -2.991081e+000 -1.100601e+002 -1.451638e+001 -7.985952e+001
1700274500 -1.600053e+001 -8.418004e+000 -3.094563e+000 -1.283037e+002 -3.065731e+000 -1.282506e+002 -1.387744e+001 -8.413334e+001
1725274125 -1.415668e+001 -3.407756e+001 -3.256358e+000 -1.463434e+002 -3.252402e+000 -1.465384e+002 -1.306188e+001 -8.999170e+001
1750273750 -1.228607e+001 -5.097280e+001 -3.533902e+000 -1.635206e+002 -3.550986e+000 -1.635067e+002 -1.182419e+001 -9.883808e+001
1775273375 -1.058824e+001 -7.011909e+001 -3.590057e+000 -1.798475e+002 -3.570428e+000 -1.797949e+002 -1.099292e+001 -1.135684e+002
1800273000 -9.816705e+000 -8.842706e+001 -3.603324e+000 1.631171e+002 -3.606486e+000 1.629090e+002 -1.067485e+001 -1.274812e+002
1825272625 -9.380048e+000 -1.052545e+002 -3.645411e+000 1.459677e+002 -3.655822e+000 1.459120e+002 -1.051610e+001 -1.416913e+002
1850272250 -9.383117e+000 -1.217212e+002 -3.658045e+000 1.289313e+002 -3.655140e+000 1.289527e+002 -1.055186e+001 -1.563424e+002
1875271875 -9.790285e+000 -1.379115e+002 -3.641397e+000 1.118470e+002 -3.622723e+000 1.117423e+002 -1.081646e+001 -1.703974e+002
1900271500 -1.047427e+001 -1.547800e+002 -3.593574e+000 9.451239e+001 -3.607265e+000 9.438498e+001 -1.131648e+001 1.761886e+002
1925271125 -1.169297e+001 -1.728246e+002 -3.553377e+000 -1.030725e+002 -3.547589e+000 -1.030052e+002 -1.200220e+001 1.635577e+002
1950270750 -1.351400e+001 1.674481e+002 -3.505865e+000 -1.208070e+002 -3.486991e+000 -1.208331e+002 -1.289271e+001 1.531432e+002
1975270375 -1.591588e+001 1.413254e+002 -3.473163e+000 -1.388884e+002 -3.469906e+000 -1.389854e+002 -1.389950e+001 1.462563e+002
2000270000 -1.907020e+001 1.026206e+002 -3.474473e+000 -1.573010e+002 -3.498176e+000 -1.573178e+002 -1.469585e+001 1.429686e+002
2025269625 -2.039632e+001 5.040930e+001 -3.638631e+000 -1.759729e+002 -3.612690e+000 -1.759938e+002 -1.476309e+001 1.437871e+002
2050269250 -1.709978e+001 9.504105e+000 -3.939625e+000 1.670659e+002 -3.947681e+000 1.668997e+002 -1.329646e+001 1.431889e+002
2075268875 -1.355592e+001 -2.405265e+001 -3.902309e+000 1.505739e+002 -3.919760e+000 1.506223e+002 -1.214092e+001 1.321366e+002
2100268500 -1.154006e+001 -4.879181e+001 -3.910282e+000 1.328913e+002 -3.887682e+000 1.328564e+002 -1.141622e+001 1.210683e+002
2125268125 -1.014880e+001 -6.852122e+001 -3.979555e+000 1.152957e+002 -3.982328e+000 1.151155e+002 -1.073087e+001 1.091212e+002
2150267750 -9.369832e+000 -8.557779e+001 -4.065900e+000 9.784455e+001 -4.082444e+000 9.790683e+001 -1.029157e+001 9.623844e+001
2175267375 -8.890603e+000 -1.006913e+002 -4.175595e+000 8.075388e+001 -4.145719e+000 8.086558e+001 -1.003377e+001 8.226221e+001
2200267000 -8.686359e+000 -1.161999e+002 -4.201235e+000 6.415531e+001 -4.200060e+000 6.389821e+001 -9.982692e+000 6.754089e+001
2225266625 -8.980637e+000 -1.314865e+002 -4.159821e+000 4.712078e+001 -4.194009e+000 4.715751e+001 -1.024484e+001 5.297906e+001
2250266250 -9.619940e+000 -1.464654e+002 -4.137146e+000 2.994672e+001 -4.111446e+000 3.011368e+001 -1.084223e+001 3.850705e+001
2275265875 -1.074196e+001 -1.628404e+002 -4.060239e+000 1.280713e+001 -4.038792e+000 1.253180e+001 -1.171788e+001 2.482725e+001
2300265500 -1.263404e+001 -1.798204e+002 -3.964303e+000 -4.927534e+000 -3.999471e+000 -4.838583e+000 -1.290485e+001 1.374524e+001
2325265125 -1.530332e+001 1.603618e+002 -3.900455e+000 -2.273587e+001 -3.870226e+000 -2.252138e+001 -1.406429e+001 6.431817e+000
2350264750 -1.971557e+001 1.296411e+002 -3.813489e+000 -4.070279e+001 -3.788541e+000 -4.108336e+001 -1.488197e+001 1.607622e+000
2375264375 -2.475629e+001 6.672137e+001 -3.745407e+000 -5.952495e+001 -3.805686e+000 -5.949309e+001 -1.523925e+001 -1.232645e+000
2400264000 -2.018786e+001 -1.710827e+000 -3.854284e+000 -7.843649e+001 -3.815310e+000 -7.814110e+001 -1.477852e+001 -4.109431e+000
2425263625 -1.556169e+001 -3.541276e+001 -3.989555e+000 -9.660029e+001 -3.949174e+000 -9.705288e+001 -1.373247e+001 -1.118086e+001
2450263250 -1.305831e+001 -5.509921e+001 -4.103104e+000 -1.152630e+002 -4.190681e+000 -1.152161e+002 -1.254917e+001 -2.119998e+001
2475262875 -1.124787e+001 -7.045730e+001 -4.474370e+000 -1.334087e+002 -4.407359e+000 -1.329743e+002 -1.142880e+001 -3.446104e+001
2500262500 -1.044499e+001 -8.305261e+001 -4.755571e+000 -1.494447e+002 -4.729321e+000 -1.501423e+002 -1.045157e+001 -5.074435e+001
2525262125 -9.247139e+000 -9.177554e+001 -4.773734e+000 -1.658354e+002 -4.877554e+000 -1.655853e+002 -9.799300e+000 -6.826126e+001
2550261750 -8.203301e+000 -1.059678e+002 -4.872136e+000 1.774519e+002 -4.775884e+000 1.778187e+002 -9.534836e+000 -8.426250e+001
2575261375 -8.033209e+000 -1.195051e+002 -4.806345e+000 1.609630e+002 -4.804209e+000 1.602251e+002 -9.420279e+000 -9.991409e+001
2600261000 -7.948421e+000 -1.325730e+002 -4.791067e+000 1.433485e+002 -4.878796e+000 1.437672e+002 -9.364315e+000 -1.153882e+002
2625260625 -8.376210e+000 -1.478652e+002 -4.839373e+000 1.267443e+002 -4.734015e+000 1.269095e+002 -9.493215e+000 -1.294022e+002
2650260250 -9.254302e+000 -1.612776e+002 -4.675400e+000 1.097155e+002 -4.690403e+000 1.091744e+002 -9.881207e+000 -1.424095e+002
2675259875 -1.048092e+001 -1.775155e+002 -4.554458e+000 9.167260e+001 -4.625126e+000 9.199988e+001 -1.054684e+001 -1.545415e+002
2700259500 -1.304889e+001 1.644688e+002 -4.512491e+000 7.350161e+001 -4.429423e+000 7.375883e+001 -1.138587e+001 -1.634670e+002
2725259125 -1.642169e+001 1.452225e+002 -4.442266e+000 5.499337e+001 -4.450874e+000 5.439862e+001 -1.226970e+001 -1.679387e+002
2750258750 -2.279939e+001 1.032445e+002 -4.506542e+000 3.546758e+001 -4.578515e+000 3.573502e+001 -1.279334e+001 -1.672081e+002
2775258375 -2.662697e+001 1.927245e+000 -4.867142e+000 1.636439e+001 -4.780859e+000 1.657455e+001 -1.210799e+001 -1.651406e+002
2800258000 -2.033500e+001 -2.504181e+001 -5.359495e+000 -1.925039e-001 -5.374214e+000 -7.520918e-001 -1.045768e+001 -1.697185e+002
2825257625 -1.388396e+001 -4.371984e+001 -5.390378e+000 -1.516943e+001 -5.451931e+000 -1.495871e+001 -9.487511e+000 1.779743e+002
2850257250 -1.073711e+001 -6.667497e+001 -5.329334e+000 -3.244706e+001 -5.265715e+000 -3.216550e+001 -9.166493e+000 1.666587e+002
2875256875 -8.920626e+000 -8.468457e+001 -5.386673e+000 -4.969723e+001 -5.383326e+000 -5.016377e+001 -8.956900e+000 1.559517e+002
2900256500 -7.980939e+000 -1.026236e+002 -5.435581e+000 -6.682958e+001 -5.507262e+000 -6.666376e+001 -8.863332e+000 1.448305e+002
2925256125 -7.698071e+000 -1.176810e+002 -5.527147e+000 -8.396370e+001 -5.469107e+000 -8.353184e+001 -8.955311e+000 1.328608e+002
2950255750 -7.578584e+000 -1.321781e+002 -5.582089e+000 -1.002618e+002 -5.538143e+000 -1.008513e+002 -9.286062e+000 1.204001e+002
2975255375 -8.093129e+000 -1.476792e+002 -5.475998e+000 -1.171113e+002 -5.555933e+000 -1.170030e+002 -9.968526e+000 1.082981e+002
3000255000 -9.011106e+000 -1.618444e+002 -5.450686e+000 -1.344573e+002 -5.392263e+000 -1.339238e+002 -1.091236e+001 9.754285e+001
3025254625 -1.037148e+001 -1.776732e+002 -5.348693e+000 -1.511824e+002 -5.300250e+000 -1.518301e+002 -1.201444e+001 8.766888e+001
3050254250 -1.296693e+001 1.667004e+002 -5.143056e+000 -1.696509e+002 -5.244079e+000 -1.695384e+002 -1.338140e+001 8.038758e+001
3075253875 -1.616035e+001 1.509766e+002 -5.287484e+000 1.713832e+002 -5.214972e+000 1.719685e+002 -1.448206e+001 7.902350e+001
3100253500 -2.122701e+001 1.146506e+002 -5.437448e+000 1.548928e+002 -5.382097e+000 1.541567e+002 -1.414914e+001 7.758973e+001
3125253125 -2.422306e+001 1.460071e+001 -5.265470e+000 1.372843e+002 -5.384908e+000 1.373380e+002 -1.358807e+001 6.814894e+001
3150252750 -1.734994e+001 -3.455755e+001 -5.367424e+000 1.185594e+002 -5.284136e+000 1.192736e+002 -1.331108e+001 5.653675e+001
3175252375 -1.312901e+001 -5.926922e+001 -5.487919e+000 1.014750e+002 -5.424320e+000 1.005821e+002 -1.307908e+001 4.402080e+001
3200252000 -1.119090e+001 -7.858613e+001 -5.462241e+000 8.353023e+001 -5.623135e+000 8.371008e+001 -1.272780e+001 3.068905e+001
3225251625 -9.908840e+000 -9.175745e+001 -5.710277e+000 6.568357e+001 -5.593113e+000 6.653775e+001 -1.220708e+001 1.635806e+001
3250251250 -9.158568e+000 -1.055524e+002 -5.787440e+000 4.967522e+001 -5.726713e+000 4.855371e+001 -1.153454e+001 6.633680e-002
3275250875 -9.171528e+000 -1.164528e+002 -5.743416e+000 3.211003e+001 -5.916540e+000 3.242868e+001 -1.097177e+001 -1.860045e+001
3300250500 -8.983168e+000 -1.247301e+002 -5.910477e+000 1.568350e+001 -5.751825e+000 1.648098e+001 -1.078510e+001 -3.694050e+001
3325250125 -9.015243e+000 -1.342520e+002 -5.652837e+000 -1.899767e-001 -5.622207e+000 -1.464654e+000 -1.074874e+001 -5.344106e+001
3350249750 -9.173874e+000 -1.429547e+002 -5.436714e+000 -1.916086e+001 -5.590903e+000 -1.856524e+001 -1.075809e+001 -6.900079e+001
3375249375 -9.657948e+000 -1.558192e+002 -5.539566e+000 -3.700829e+001 -5.365322e+000 -3.647064e+001 -1.085939e+001 -8.334899e+001
3400249000 -1.112130e+001 -1.661905e+002 -5.360542e+000 -5.441317e+001 -5.374195e+000 -5.558286e+001 -1.120996e+001 -9.598446e+001
3425248625 -1.265138e+001 -1.762692e+002 -5.306422e+000 -7.372004e+001 -5.439639e+000 -7.308884e+001 -1.170095e+001 -1.061842e+002
3450248250 -1.592414e+001 1.706829e+002 -5.425017e+000 -9.182521e+001 -5.265043e+000 -9.140339e+001 -1.217513e+001 -1.139091e+002
3475247875 -2.144833e+001 1.682171e+002 -5.309669e+000 -1.101957e+002 -5.326469e+000 -1.112783e+002 -1.256113e+001 -1.174427e+002
3500247500 -3.456287e+001 -1.220636e+002 -5.422599e+000 -1.307533e+002 -5.541338e+000 -1.300682e+002 -1.231229e+001 -1.181326e+002
3525247125 -2.039541e+001 -7.680145e+001 -5.969575e+000 -1.497194e+002 -5.802753e+000 -1.493326e+002 -1.116437e+001 -1.209644e+002
3550246750 -1.802744e+001 -8.059483e+001 -6.456130e+000 -1.657166e+002 -6.490746e+000 -1.667028e+002 -9.674507e+000 -1.302973e+002
3575246375 -1.423888e+001 -7.019166e+001 -6.561605e+000 1.792275e+002 -6.648388e+000 1.799334e+002 -9.026023e+000 -1.434456e+002
3600246000 -1.063345e+001 -8.181667e+001 -6.480544e+000 1.626566e+002 -6.347283e+000 1.629323e+002 -8.878715e+000 -1.547581e+002
3625245625 -8.740637e+000 -9.526321e+001 -6.454939e+000 1.449812e+002 -6.472436e+000 1.442546e+002 -8.728415e+000 -1.658115e+002
3650245250 -7.571487e+000 -1.105232e+002 -6.610304e+000 1.273273e+002 -6.674538e+000 1.278477e+002 -8.717372e+000 -1.767300e+002
3675244875 -7.321135e+000 -1.249616e+002 -6.767032e+000 1.107044e+002 -6.663867e+000 1.110121e+002 -8.938362e+000 1.724476e+002
3700244500 -7.309439e+000 -1.379989e+002 -6.829335e+000 9.462661e+001 -6.800467e+000 9.393542e+001 -9.267019e+000 1.623154e+002
3725244125 -7.851117e+000 -1.530695e+002 -6.701932e+000 7.831858e+001 -6.789951e+000 7.865752e+001 -9.579366e+000 1.524246e+002
3750243750 -9.166862e+000 -1.661709e+002 -6.539042e+000 6.105828e+001 -6.446878e+000 6.156334e+001 -1.021961e+001 1.423048e+002
3775243375 -1.095097e+001 -1.799805e+002 -6.378089e+000 4.321530e+001 -6.321609e+000 4.249459e+001 -1.120790e+001 1.340500e+002
3800243000 -1.480500e+001 1.656889e+002 -6.216528e+000 2.384582e+001 -6.333192e+000 2.407979e+001 -1.215815e+001 1.298139e+002
